#! /usr/bin/vvp
:ivl_version "11.0 (stable)";
:ivl_delay_selection "TYPICAL";
:vpi_time_precision - 12;
:vpi_module "/usr/lib/x86_64-linux-gnu/ivl/system.vpi";
:vpi_module "/usr/lib/x86_64-linux-gnu/ivl/vhdl_sys.vpi";
:vpi_module "/usr/lib/x86_64-linux-gnu/ivl/vhdl_textio.vpi";
:vpi_module "/usr/lib/x86_64-linux-gnu/ivl/v2005_math.vpi";
:vpi_module "/usr/lib/x86_64-linux-gnu/ivl/va_math.vpi";
:vpi_module "/usr/lib/x86_64-linux-gnu/ivl/v2009.vpi";
S_0x5f38f3612750 .scope package, "$unit" "$unit" 2 1;
 .timescale 0 0;
S_0x5f38f36128e0 .scope module, "axi4_dma_tb" "axi4_dma_tb" 3 3;
 .timescale -9 -12;
P_0x5f38f35205c0 .param/l "ADDR_WIDTH" 0 3 5, +C4<00000000000000000000000000100000>;
P_0x5f38f3520600 .param/l "DATA_WIDTH" 0 3 6, +C4<00000000000000000000000000100000>;
v0x5f38f363e3d0_0 .var "clk", 0 0;
v0x5f38f363e490_0 .net "m_axi_araddr", 31 0, v0x5f38f36304b0_0;  1 drivers
v0x5f38f363e550_0 .net "m_axi_arburst", 1 0, v0x5f38f3630570_0;  1 drivers
v0x5f38f363e5f0_0 .net "m_axi_arlen", 7 0, v0x5f38f3630660_0;  1 drivers
v0x5f38f363e6b0_0 .net "m_axi_arready", 0 0, L_0x5f38f35d7140;  1 drivers
v0x5f38f363e7a0_0 .net "m_axi_arsize", 2 0, v0x5f38f3630850_0;  1 drivers
v0x5f38f363e860_0 .net "m_axi_arvalid", 0 0, v0x5f38f3630930_0;  1 drivers
v0x5f38f363e900_0 .net "m_axi_awaddr", 31 0, v0x5f38f3631e80_0;  1 drivers
v0x5f38f363e9c0_0 .net "m_axi_awburst", 1 0, v0x5f38f3631f60_0;  1 drivers
v0x5f38f363ea80_0 .net "m_axi_awlen", 7 0, v0x5f38f3632020_0;  1 drivers
v0x5f38f363eb40_0 .net "m_axi_awready", 0 0, L_0x5f38f35d7650;  1 drivers
v0x5f38f363ebe0_0 .net "m_axi_awsize", 2 0, v0x5f38f3632210_0;  1 drivers
v0x5f38f363eca0_0 .net "m_axi_awvalid", 0 0, v0x5f38f36322f0_0;  1 drivers
v0x5f38f363ed40_0 .net "m_axi_bready", 0 0, v0x5f38f36323b0_0;  1 drivers
v0x5f38f363ede0_0 .net "m_axi_bresp", 1 0, v0x5f38f363d2f0_0;  1 drivers
v0x5f38f363eea0_0 .net "m_axi_bvalid", 0 0, v0x5f38f363d400_0;  1 drivers
v0x5f38f363ef40_0 .net "m_axi_rdata", 31 0, v0x5f38f363d4f0_0;  1 drivers
v0x5f38f363f110_0 .net "m_axi_rlast", 0 0, v0x5f38f363d600_0;  1 drivers
v0x5f38f363f1b0_0 .net "m_axi_rready", 0 0, v0x5f38f3630b90_0;  1 drivers
v0x5f38f363f250_0 .net "m_axi_rresp", 1 0, v0x5f38f363d7e0_0;  1 drivers
v0x5f38f363f310_0 .net "m_axi_rvalid", 0 0, v0x5f38f363d8f0_0;  1 drivers
v0x5f38f363f3b0_0 .net "m_axi_wdata", 31 0, v0x5f38f3632610_0;  1 drivers
v0x5f38f363f470_0 .net "m_axi_wlast", 0 0, v0x5f38f36326f0_0;  1 drivers
v0x5f38f363f510_0 .net "m_axi_wready", 0 0, L_0x5f38f35d8a20;  1 drivers
v0x5f38f363f5b0_0 .net "m_axi_wstrb", 3 0, v0x5f38f3632870_0;  1 drivers
v0x5f38f363f670_0 .net "m_axi_wvalid", 0 0, v0x5f38f3632950_0;  1 drivers
v0x5f38f363f710_0 .var "rst_n", 0 0;
v0x5f38f363f8c0_0 .var "s_axi_araddr", 31 0;
v0x5f38f363f980_0 .net "s_axi_arready", 0 0, v0x5f38f362edf0_0;  1 drivers
v0x5f38f363fa70_0 .var "s_axi_arvalid", 0 0;
v0x5f38f363fb60_0 .var "s_axi_awaddr", 31 0;
v0x5f38f363fc70_0 .net "s_axi_awready", 0 0, v0x5f38f362f050_0;  1 drivers
v0x5f38f363fd60_0 .var "s_axi_awvalid", 0 0;
v0x5f38f3640060_0 .var "s_axi_bready", 0 0;
v0x5f38f3640150_0 .net "s_axi_bresp", 1 0, v0x5f38f362f290_0;  1 drivers
v0x5f38f3640260_0 .net "s_axi_bvalid", 0 0, v0x5f38f362f370_0;  1 drivers
v0x5f38f3640350_0 .net "s_axi_rdata", 31 0, v0x5f38f362f430_0;  1 drivers
v0x5f38f3640460_0 .var "s_axi_rready", 0 0;
v0x5f38f3640550_0 .net "s_axi_rresp", 1 0, v0x5f38f362f5d0_0;  1 drivers
v0x5f38f3640660_0 .net "s_axi_rvalid", 0 0, v0x5f38f362f6b0_0;  1 drivers
v0x5f38f3640750_0 .var "s_axi_wdata", 31 0;
v0x5f38f3640860_0 .net "s_axi_wready", 0 0, v0x5f38f362f850_0;  1 drivers
v0x5f38f3640950_0 .var "s_axi_wstrb", 3 0;
v0x5f38f3640a60_0 .var "s_axi_wvalid", 0 0;
E_0x5f38f36186d0 .event edge, v0x5f38f3635ad0_0;
E_0x5f38f3614670 .event edge, v0x5f38f3632950_0;
E_0x5f38f3614d20 .event edge, v0x5f38f36322f0_0;
E_0x5f38f3618fc0 .event edge, v0x5f38f3632a10_0;
E_0x5f38f3617400 .event edge, v0x5f38f3632ca0_0;
E_0x5f38f3614c60 .event edge, v0x5f38f3633180_0;
E_0x5f38f3521dc0 .event edge, v0x5f38f3634480_0;
E_0x5f38f35ef1e0 .event posedge, v0x5f38f362ec50_0;
S_0x5f38f35fe860 .scope task, "axi_write" "axi_write" 3 207, 3 207 0, S_0x5f38f36128e0;
 .timescale -9 -12;
v0x5f38f35d5660_0 .var "addr", 31 0;
v0x5f38f35d6060_0 .var "data", 31 0;
v0x5f38f35d72e0_0 .var/i "timeout", 31 0;
E_0x5f38f35efcc0 .event posedge, v0x5f38f35d9120_0;
TD_axi4_dma_tb.axi_write ;
    %vpi_call/w 3 216 "$display", "\000" {0 0 0};
    %vpi_call/w 3 217 "$display", "AXI WRITE: ADDR = %h DATA = %h", v0x5f38f35d5660_0, v0x5f38f35d6060_0 {0 0 0};
    %wait E_0x5f38f35efcc0;
    %load/vec4 v0x5f38f35d5660_0;
    %assign/vec4 v0x5f38f363fb60_0, 0;
    %pushi/vec4 1, 0, 1;
    %assign/vec4 v0x5f38f363fd60_0, 0;
    %load/vec4 v0x5f38f35d6060_0;
    %assign/vec4 v0x5f38f3640750_0, 0;
    %pushi/vec4 15, 0, 4;
    %assign/vec4 v0x5f38f3640950_0, 0;
    %pushi/vec4 1, 0, 1;
    %assign/vec4 v0x5f38f3640a60_0, 0;
    %pushi/vec4 1, 0, 1;
    %assign/vec4 v0x5f38f3640060_0, 0;
    %pushi/vec4 0, 0, 32;
    %store/vec4 v0x5f38f35d72e0_0, 0, 32;
T_0.0 ;
    %load/vec4 v0x5f38f363fc70_0;
    %nor/r;
    %flag_set/vec4 8;
    %jmp/0xz T_0.1, 8;
    %wait E_0x5f38f35efcc0;
    %load/vec4 v0x5f38f35d72e0_0;
    %addi 1, 0, 32;
    %store/vec4 v0x5f38f35d72e0_0, 0, 32;
    %load/vec4 v0x5f38f35d72e0_0;
    %cmpi/s 20, 0, 32;
    %flag_or 5, 4; GT is !LE
    %flag_inv 5;
    %jmp/0xz  T_0.2, 5;
    %vpi_call/w 3 248 "$display", "\000" {0 0 0};
    %vpi_call/w 3 249 "$display", "ERROR: AW CHANNEL TIMEOUT" {0 0 0};
    %vpi_call/w 3 250 "$display", "ADDR = %h", v0x5f38f35d5660_0 {0 0 0};
    %vpi_call/w 3 252 "$finish" {0 0 0};
T_0.2 ;
    %jmp T_0.0;
T_0.1 ;
    %vpi_call/w 3 258 "$display", "  AW handshake" {0 0 0};
    %wait E_0x5f38f35efcc0;
    %pushi/vec4 0, 0, 1;
    %assign/vec4 v0x5f38f363fd60_0, 0;
    %pushi/vec4 0, 0, 32;
    %store/vec4 v0x5f38f35d72e0_0, 0, 32;
T_0.4 ;
    %load/vec4 v0x5f38f3640860_0;
    %nor/r;
    %flag_set/vec4 8;
    %jmp/0xz T_0.5, 8;
    %wait E_0x5f38f35efcc0;
    %load/vec4 v0x5f38f35d72e0_0;
    %addi 1, 0, 32;
    %store/vec4 v0x5f38f35d72e0_0, 0, 32;
    %load/vec4 v0x5f38f35d72e0_0;
    %cmpi/s 20, 0, 32;
    %flag_or 5, 4; GT is !LE
    %flag_inv 5;
    %jmp/0xz  T_0.6, 5;
    %vpi_call/w 3 278 "$display", "\000" {0 0 0};
    %vpi_call/w 3 279 "$display", "ERROR: W CHANNEL TIMEOUT" {0 0 0};
    %vpi_call/w 3 280 "$display", "ADDR = %h", v0x5f38f35d5660_0 {0 0 0};
    %vpi_call/w 3 282 "$finish" {0 0 0};
T_0.6 ;
    %jmp T_0.4;
T_0.5 ;
    %vpi_call/w 3 288 "$display", "  W handshake" {0 0 0};
    %wait E_0x5f38f35efcc0;
    %pushi/vec4 0, 0, 1;
    %assign/vec4 v0x5f38f3640a60_0, 0;
    %pushi/vec4 0, 0, 32;
    %store/vec4 v0x5f38f35d72e0_0, 0, 32;
T_0.8 ;
    %load/vec4 v0x5f38f3640260_0;
    %nor/r;
    %flag_set/vec4 8;
    %jmp/0xz T_0.9, 8;
    %wait E_0x5f38f35efcc0;
    %load/vec4 v0x5f38f35d72e0_0;
    %addi 1, 0, 32;
    %store/vec4 v0x5f38f35d72e0_0, 0, 32;
    %load/vec4 v0x5f38f35d72e0_0;
    %cmpi/s 20, 0, 32;
    %flag_or 5, 4; GT is !LE
    %flag_inv 5;
    %jmp/0xz  T_0.10, 5;
    %vpi_call/w 3 308 "$display", "\000" {0 0 0};
    %vpi_call/w 3 309 "$display", "ERROR: B CHANNEL TIMEOUT" {0 0 0};
    %vpi_call/w 3 310 "$display", "ADDR = %h", v0x5f38f35d5660_0 {0 0 0};
    %vpi_call/w 3 312 "$display", "  AWREADY = %b", v0x5f38f363fc70_0 {0 0 0};
    %vpi_call/w 3 313 "$display", "  WREADY  = %b", v0x5f38f3640860_0 {0 0 0};
    %vpi_call/w 3 314 "$display", "  BVALID  = %b", v0x5f38f3640260_0 {0 0 0};
    %vpi_call/w 3 315 "$display", "  BREADY  = %b", v0x5f38f3640060_0 {0 0 0};
    %vpi_call/w 3 317 "$finish" {0 0 0};
T_0.10 ;
    %jmp T_0.8;
T_0.9 ;
    %vpi_call/w 3 323 "$display", "  B response received" {0 0 0};
    %wait E_0x5f38f35efcc0;
    %pushi/vec4 0, 0, 1;
    %assign/vec4 v0x5f38f3640060_0, 0;
    %vpi_call/w 3 329 "$display", "AXI WRITE COMPLETE" {0 0 0};
    %end;
S_0x5f38f362dad0 .scope module, "dut" "axi4_dma_top" 3 100, 4 1 0, S_0x5f38f36128e0;
 .timescale 0 0;
    .port_info 0 /INPUT 1 "clk";
    .port_info 1 /INPUT 1 "rst_n";
    .port_info 2 /INPUT 32 "s_axi_awaddr";
    .port_info 3 /INPUT 1 "s_axi_awvalid";
    .port_info 4 /OUTPUT 1 "s_axi_awready";
    .port_info 5 /INPUT 32 "s_axi_wdata";
    .port_info 6 /INPUT 4 "s_axi_wstrb";
    .port_info 7 /INPUT 1 "s_axi_wvalid";
    .port_info 8 /OUTPUT 1 "s_axi_wready";
    .port_info 9 /OUTPUT 2 "s_axi_bresp";
    .port_info 10 /OUTPUT 1 "s_axi_bvalid";
    .port_info 11 /INPUT 1 "s_axi_bready";
    .port_info 12 /INPUT 32 "s_axi_araddr";
    .port_info 13 /INPUT 1 "s_axi_arvalid";
    .port_info 14 /OUTPUT 1 "s_axi_arready";
    .port_info 15 /OUTPUT 32 "s_axi_rdata";
    .port_info 16 /OUTPUT 2 "s_axi_rresp";
    .port_info 17 /OUTPUT 1 "s_axi_rvalid";
    .port_info 18 /INPUT 1 "s_axi_rready";
    .port_info 19 /OUTPUT 32 "m_axi_araddr";
    .port_info 20 /OUTPUT 8 "m_axi_arlen";
    .port_info 21 /OUTPUT 3 "m_axi_arsize";
    .port_info 22 /OUTPUT 2 "m_axi_arburst";
    .port_info 23 /OUTPUT 1 "m_axi_arvalid";
    .port_info 24 /INPUT 1 "m_axi_arready";
    .port_info 25 /INPUT 32 "m_axi_rdata";
    .port_info 26 /INPUT 2 "m_axi_rresp";
    .port_info 27 /INPUT 1 "m_axi_rlast";
    .port_info 28 /INPUT 1 "m_axi_rvalid";
    .port_info 29 /OUTPUT 1 "m_axi_rready";
    .port_info 30 /OUTPUT 32 "m_axi_awaddr";
    .port_info 31 /OUTPUT 8 "m_axi_awlen";
    .port_info 32 /OUTPUT 3 "m_axi_awsize";
    .port_info 33 /OUTPUT 2 "m_axi_awburst";
    .port_info 34 /OUTPUT 1 "m_axi_awvalid";
    .port_info 35 /INPUT 1 "m_axi_awready";
    .port_info 36 /OUTPUT 32 "m_axi_wdata";
    .port_info 37 /OUTPUT 4 "m_axi_wstrb";
    .port_info 38 /OUTPUT 1 "m_axi_wlast";
    .port_info 39 /OUTPUT 1 "m_axi_wvalid";
    .port_info 40 /INPUT 1 "m_axi_wready";
    .port_info 41 /INPUT 2 "m_axi_bresp";
    .port_info 42 /INPUT 1 "m_axi_bvalid";
    .port_info 43 /OUTPUT 1 "m_axi_bready";
P_0x5f38f35573e0 .param/l "ADDR_WIDTH" 0 4 2, +C4<00000000000000000000000000100000>;
P_0x5f38f3557420 .param/l "DATA_WIDTH" 0 4 3, +C4<00000000000000000000000000100000>;
L_0x5f38f35b3c90 .functor AND 1, v0x5f38f3631320_0, L_0x5f38f3651390, C4<1>, C4<1>;
L_0x5f38f35d5f00 .functor AND 1, v0x5f38f3632950_0, L_0x5f38f35d8a20, C4<1>, C4<1>;
v0x5f38f3637510_0 .net *"_ivl_1", 0 0, L_0x5f38f3651390;  1 drivers
v0x5f38f36375f0_0 .net "clk", 0 0, v0x5f38f363e3d0_0;  1 drivers
v0x5f38f36376b0_0 .net "current_dest_addr", 31 0, v0x5f38f3633960_0;  1 drivers
v0x5f38f3637780_0 .net "current_source_addr", 31 0, v0x5f38f3633a20_0;  1 drivers
v0x5f38f3637820_0 .net "dest_addr", 31 0, v0x5f38f36369b0_0;  1 drivers
v0x5f38f3637980_0 .net "dma_busy", 0 0, v0x5f38f3633cf0_0;  1 drivers
v0x5f38f3637a70_0 .net "dma_done", 0 0, v0x5f38f3633db0_0;  1 drivers
v0x5f38f3637b60_0 .net "dma_start", 0 0, v0x5f38f3636c70_0;  1 drivers
v0x5f38f3637c50_0 .net "fifo_count", 2 0, v0x5f38f36356f0_0;  1 drivers
v0x5f38f3637da0_0 .net "fifo_empty", 0 0, L_0x5f38f3650ef0;  1 drivers
v0x5f38f3637e40_0 .net "fifo_full", 0 0, L_0x5f38f36511c0;  1 drivers
v0x5f38f3637ee0_0 .net "fifo_rd_data", 31 0, L_0x5f38f35e0090;  1 drivers
v0x5f38f3637f80_0 .net "fifo_rd_en", 0 0, L_0x5f38f35d5f00;  1 drivers
v0x5f38f3638020_0 .net "fifo_wr_en", 0 0, L_0x5f38f35b3c90;  1 drivers
v0x5f38f36380c0_0 .net "m_axi_araddr", 31 0, v0x5f38f36304b0_0;  alias, 1 drivers
v0x5f38f3638160_0 .net "m_axi_arburst", 1 0, v0x5f38f3630570_0;  alias, 1 drivers
v0x5f38f3638200_0 .net "m_axi_arlen", 7 0, v0x5f38f3630660_0;  alias, 1 drivers
v0x5f38f36383b0_0 .net "m_axi_arready", 0 0, L_0x5f38f35d7140;  alias, 1 drivers
v0x5f38f3638480_0 .net "m_axi_arsize", 2 0, v0x5f38f3630850_0;  alias, 1 drivers
v0x5f38f3638550_0 .net "m_axi_arvalid", 0 0, v0x5f38f3630930_0;  alias, 1 drivers
v0x5f38f3638620_0 .net "m_axi_awaddr", 31 0, v0x5f38f3631e80_0;  alias, 1 drivers
v0x5f38f36386f0_0 .net "m_axi_awburst", 1 0, v0x5f38f3631f60_0;  alias, 1 drivers
v0x5f38f36387c0_0 .net "m_axi_awlen", 7 0, v0x5f38f3632020_0;  alias, 1 drivers
v0x5f38f3638890_0 .net "m_axi_awready", 0 0, L_0x5f38f35d7650;  alias, 1 drivers
v0x5f38f3638960_0 .net "m_axi_awsize", 2 0, v0x5f38f3632210_0;  alias, 1 drivers
v0x5f38f3638a30_0 .net "m_axi_awvalid", 0 0, v0x5f38f36322f0_0;  alias, 1 drivers
v0x5f38f3638b00_0 .net "m_axi_bready", 0 0, v0x5f38f36323b0_0;  alias, 1 drivers
v0x5f38f3638bd0_0 .net "m_axi_bresp", 1 0, v0x5f38f363d2f0_0;  alias, 1 drivers
v0x5f38f3638ca0_0 .net "m_axi_bvalid", 0 0, v0x5f38f363d400_0;  alias, 1 drivers
v0x5f38f3638d70_0 .net "m_axi_rdata", 31 0, v0x5f38f363d4f0_0;  alias, 1 drivers
v0x5f38f3638e40_0 .net "m_axi_rlast", 0 0, v0x5f38f363d600_0;  alias, 1 drivers
v0x5f38f3638f10_0 .net "m_axi_rready", 0 0, v0x5f38f3630b90_0;  alias, 1 drivers
v0x5f38f3638fe0_0 .net "m_axi_rresp", 1 0, v0x5f38f363d7e0_0;  alias, 1 drivers
v0x5f38f36392c0_0 .net "m_axi_rvalid", 0 0, v0x5f38f363d8f0_0;  alias, 1 drivers
v0x5f38f3639390_0 .net "m_axi_wdata", 31 0, v0x5f38f3632610_0;  alias, 1 drivers
v0x5f38f3639460_0 .net "m_axi_wlast", 0 0, v0x5f38f36326f0_0;  alias, 1 drivers
v0x5f38f3639530_0 .net "m_axi_wready", 0 0, L_0x5f38f35d8a20;  alias, 1 drivers
v0x5f38f3639600_0 .net "m_axi_wstrb", 3 0, v0x5f38f3632870_0;  alias, 1 drivers
v0x5f38f36396d0_0 .net "m_axi_wvalid", 0 0, v0x5f38f3632950_0;  alias, 1 drivers
v0x5f38f36397a0_0 .net "read_data", 31 0, v0x5f38f3630fb0_0;  1 drivers
v0x5f38f3639890_0 .net "read_done", 0 0, v0x5f38f3631090_0;  1 drivers
v0x5f38f3639980_0 .net "read_request", 0 0, v0x5f38f36340b0_0;  1 drivers
v0x5f38f3639a70_0 .net "read_valid", 0 0, v0x5f38f3631320_0;  1 drivers
v0x5f38f3639b10_0 .net "reg_read_addr", 31 0, v0x5f38f354d4d0_0;  1 drivers
v0x5f38f3639c00_0 .net "reg_read_data", 31 0, v0x5f38f3636de0_0;  1 drivers
v0x5f38f3639cf0_0 .net "reg_read_en", 0 0, v0x5f38f362e910_0;  1 drivers
v0x5f38f3639de0_0 .net "reg_write_addr", 31 0, v0x5f38f362e9d0_0;  1 drivers
v0x5f38f3639ed0_0 .net "reg_write_data", 31 0, v0x5f38f362eab0_0;  1 drivers
v0x5f38f3639fc0_0 .net "reg_write_en", 0 0, v0x5f38f362eb90_0;  1 drivers
v0x5f38f363a0b0_0 .net "rst_n", 0 0, v0x5f38f363f710_0;  1 drivers
v0x5f38f363a150_0 .net "s_axi_araddr", 31 0, v0x5f38f363f8c0_0;  1 drivers
v0x5f38f363a1f0_0 .net "s_axi_arready", 0 0, v0x5f38f362edf0_0;  alias, 1 drivers
v0x5f38f363a290_0 .net "s_axi_arvalid", 0 0, v0x5f38f363fa70_0;  1 drivers
v0x5f38f363a330_0 .net "s_axi_awaddr", 31 0, v0x5f38f363fb60_0;  1 drivers
v0x5f38f363a3d0_0 .net "s_axi_awready", 0 0, v0x5f38f362f050_0;  alias, 1 drivers
v0x5f38f363a470_0 .net "s_axi_awvalid", 0 0, v0x5f38f363fd60_0;  1 drivers
v0x5f38f363a510_0 .net "s_axi_bready", 0 0, v0x5f38f3640060_0;  1 drivers
v0x5f38f363a5b0_0 .net "s_axi_bresp", 1 0, v0x5f38f362f290_0;  alias, 1 drivers
v0x5f38f363a650_0 .net "s_axi_bvalid", 0 0, v0x5f38f362f370_0;  alias, 1 drivers
v0x5f38f363a720_0 .net "s_axi_rdata", 31 0, v0x5f38f362f430_0;  alias, 1 drivers
v0x5f38f363a7f0_0 .net "s_axi_rready", 0 0, v0x5f38f3640460_0;  1 drivers
v0x5f38f363a8c0_0 .net "s_axi_rresp", 1 0, v0x5f38f362f5d0_0;  alias, 1 drivers
v0x5f38f363a990_0 .net "s_axi_rvalid", 0 0, v0x5f38f362f6b0_0;  alias, 1 drivers
v0x5f38f363aa60_0 .net "s_axi_wdata", 31 0, v0x5f38f3640750_0;  1 drivers
v0x5f38f363ab30_0 .net "s_axi_wready", 0 0, v0x5f38f362f850_0;  alias, 1 drivers
v0x5f38f363ac00_0 .net "s_axi_wstrb", 3 0, v0x5f38f3640950_0;  1 drivers
v0x5f38f363acd0_0 .net "s_axi_wvalid", 0 0, v0x5f38f3640a60_0;  1 drivers
v0x5f38f363ada0_0 .net "source_addr", 31 0, v0x5f38f3637290_0;  1 drivers
v0x5f38f363ae90_0 .net "transfer_length", 31 0, v0x5f38f3637360_0;  1 drivers
v0x5f38f363af80_0 .net "write_done", 0 0, v0x5f38f36330c0_0;  1 drivers
v0x5f38f363b070_0 .net "write_request", 0 0, v0x5f38f3634820_0;  1 drivers
L_0x5f38f3651390 .reduce/nor L_0x5f38f36511c0;
L_0x5f38f3651570 .reduce/nor L_0x5f38f3650ef0;
S_0x5f38f362e1a0 .scope module, "u_axi4_lite_slave" "axi4_lite_slave" 4 139, 5 1 0, S_0x5f38f362dad0;
 .timescale 0 0;
    .port_info 0 /INPUT 1 "clk";
    .port_info 1 /INPUT 1 "rst_n";
    .port_info 2 /INPUT 32 "s_axi_awaddr";
    .port_info 3 /INPUT 1 "s_axi_awvalid";
    .port_info 4 /OUTPUT 1 "s_axi_awready";
    .port_info 5 /INPUT 32 "s_axi_wdata";
    .port_info 6 /INPUT 4 "s_axi_wstrb";
    .port_info 7 /INPUT 1 "s_axi_wvalid";
    .port_info 8 /OUTPUT 1 "s_axi_wready";
    .port_info 9 /OUTPUT 2 "s_axi_bresp";
    .port_info 10 /OUTPUT 1 "s_axi_bvalid";
    .port_info 11 /INPUT 1 "s_axi_bready";
    .port_info 12 /INPUT 32 "s_axi_araddr";
    .port_info 13 /INPUT 1 "s_axi_arvalid";
    .port_info 14 /OUTPUT 1 "s_axi_arready";
    .port_info 15 /OUTPUT 32 "s_axi_rdata";
    .port_info 16 /OUTPUT 2 "s_axi_rresp";
    .port_info 17 /OUTPUT 1 "s_axi_rvalid";
    .port_info 18 /INPUT 1 "s_axi_rready";
    .port_info 19 /OUTPUT 1 "reg_write_en";
    .port_info 20 /OUTPUT 32 "reg_write_addr";
    .port_info 21 /OUTPUT 32 "reg_write_data";
    .port_info 22 /OUTPUT 1 "reg_read_en";
    .port_info 23 /OUTPUT 32 "reg_read_addr";
    .port_info 24 /INPUT 32 "reg_read_data";
P_0x5f38f354b440 .param/l "ADDR_WIDTH" 0 5 2, +C4<00000000000000000000000000100000>;
P_0x5f38f354b480 .param/l "DATA_WIDTH" 0 5 3, +C4<00000000000000000000000000100000>;
v0x5f38f35d77b0_0 .var "aw_received", 0 0;
v0x5f38f35d8bc0_0 .var "awaddr_reg", 31 0;
v0x5f38f35d9120_0 .net "clk", 0 0, v0x5f38f363e3d0_0;  alias, 1 drivers
v0x5f38f354d4d0_0 .var "reg_read_addr", 31 0;
v0x5f38f362e7e0_0 .net "reg_read_data", 31 0, v0x5f38f3636de0_0;  alias, 1 drivers
v0x5f38f362e910_0 .var "reg_read_en", 0 0;
v0x5f38f362e9d0_0 .var "reg_write_addr", 31 0;
v0x5f38f362eab0_0 .var "reg_write_data", 31 0;
v0x5f38f362eb90_0 .var "reg_write_en", 0 0;
v0x5f38f362ec50_0 .net "rst_n", 0 0, v0x5f38f363f710_0;  alias, 1 drivers
v0x5f38f362ed10_0 .net "s_axi_araddr", 31 0, v0x5f38f363f8c0_0;  alias, 1 drivers
v0x5f38f362edf0_0 .var "s_axi_arready", 0 0;
v0x5f38f362eeb0_0 .net "s_axi_arvalid", 0 0, v0x5f38f363fa70_0;  alias, 1 drivers
v0x5f38f362ef70_0 .net "s_axi_awaddr", 31 0, v0x5f38f363fb60_0;  alias, 1 drivers
v0x5f38f362f050_0 .var "s_axi_awready", 0 0;
v0x5f38f362f110_0 .net "s_axi_awvalid", 0 0, v0x5f38f363fd60_0;  alias, 1 drivers
v0x5f38f362f1d0_0 .net "s_axi_bready", 0 0, v0x5f38f3640060_0;  alias, 1 drivers
v0x5f38f362f290_0 .var "s_axi_bresp", 1 0;
v0x5f38f362f370_0 .var "s_axi_bvalid", 0 0;
v0x5f38f362f430_0 .var "s_axi_rdata", 31 0;
v0x5f38f362f510_0 .net "s_axi_rready", 0 0, v0x5f38f3640460_0;  alias, 1 drivers
v0x5f38f362f5d0_0 .var "s_axi_rresp", 1 0;
v0x5f38f362f6b0_0 .var "s_axi_rvalid", 0 0;
v0x5f38f362f770_0 .net "s_axi_wdata", 31 0, v0x5f38f3640750_0;  alias, 1 drivers
v0x5f38f362f850_0 .var "s_axi_wready", 0 0;
v0x5f38f362f910_0 .net "s_axi_wstrb", 3 0, v0x5f38f3640950_0;  alias, 1 drivers
v0x5f38f362f9f0_0 .net "s_axi_wvalid", 0 0, v0x5f38f3640a60_0;  alias, 1 drivers
v0x5f38f362fab0_0 .var "w_received", 0 0;
v0x5f38f362fb70_0 .var "wdata_reg", 31 0;
v0x5f38f362fc50_0 .var "wstrb_reg", 3 0;
E_0x5f38f35f4170/0 .event negedge, v0x5f38f362ec50_0;
E_0x5f38f35f4170/1 .event posedge, v0x5f38f35d9120_0;
E_0x5f38f35f4170 .event/or E_0x5f38f35f4170/0, E_0x5f38f35f4170/1;
E_0x5f38f35f8a60/0 .event edge, v0x5f38f35d8bc0_0, v0x5f38f362fb70_0, v0x5f38f35d77b0_0, v0x5f38f362fab0_0;
E_0x5f38f35f8a60/1 .event edge, v0x5f38f362f370_0;
E_0x5f38f35f8a60 .event/or E_0x5f38f35f8a60/0, E_0x5f38f35f8a60/1;
E_0x5f38f3548110 .event edge, v0x5f38f35d77b0_0, v0x5f38f362f370_0, v0x5f38f362fab0_0, v0x5f38f362f6b0_0;
S_0x5f38f3630050 .scope module, "u_axi4_read_master" "axi4_read_master" 4 238, 6 1 0, S_0x5f38f362dad0;
 .timescale 0 0;
    .port_info 0 /INPUT 1 "clk";
    .port_info 1 /INPUT 1 "rst_n";
    .port_info 2 /INPUT 32 "read_addr";
    .port_info 3 /INPUT 1 "read_request";
    .port_info 4 /OUTPUT 1 "read_done";
    .port_info 5 /OUTPUT 32 "read_data";
    .port_info 6 /OUTPUT 1 "read_valid";
    .port_info 7 /OUTPUT 32 "m_axi_araddr";
    .port_info 8 /OUTPUT 8 "m_axi_arlen";
    .port_info 9 /OUTPUT 3 "m_axi_arsize";
    .port_info 10 /OUTPUT 2 "m_axi_arburst";
    .port_info 11 /OUTPUT 1 "m_axi_arvalid";
    .port_info 12 /INPUT 1 "m_axi_arready";
    .port_info 13 /INPUT 32 "m_axi_rdata";
    .port_info 14 /INPUT 2 "m_axi_rresp";
    .port_info 15 /INPUT 1 "m_axi_rlast";
    .port_info 16 /INPUT 1 "m_axi_rvalid";
    .port_info 17 /OUTPUT 1 "m_axi_rready";
P_0x5f38f360dca0 .param/l "ADDR_WIDTH" 0 6 2, +C4<00000000000000000000000000100000>;
P_0x5f38f360dce0 .param/l "DATA_WIDTH" 0 6 3, +C4<00000000000000000000000000100000>;
enum0x5f38f34dc4e0 .enum4 (2)
   "IDLE" 2'b00,
   "SEND_AR" 2'b01,
   "WAIT_R" 2'b10
 ;
v0x5f38f36303c0_0 .net "clk", 0 0, v0x5f38f363e3d0_0;  alias, 1 drivers
v0x5f38f36304b0_0 .var "m_axi_araddr", 31 0;
v0x5f38f3630570_0 .var "m_axi_arburst", 1 0;
v0x5f38f3630660_0 .var "m_axi_arlen", 7 0;
v0x5f38f3630740_0 .net "m_axi_arready", 0 0, L_0x5f38f35d7140;  alias, 1 drivers
v0x5f38f3630850_0 .var "m_axi_arsize", 2 0;
v0x5f38f3630930_0 .var "m_axi_arvalid", 0 0;
v0x5f38f36309f0_0 .net "m_axi_rdata", 31 0, v0x5f38f363d4f0_0;  alias, 1 drivers
v0x5f38f3630ad0_0 .net "m_axi_rlast", 0 0, v0x5f38f363d600_0;  alias, 1 drivers
v0x5f38f3630b90_0 .var "m_axi_rready", 0 0;
v0x5f38f3630c50_0 .net "m_axi_rresp", 1 0, v0x5f38f363d7e0_0;  alias, 1 drivers
v0x5f38f3630d30_0 .net "m_axi_rvalid", 0 0, v0x5f38f363d8f0_0;  alias, 1 drivers
v0x5f38f3630df0_0 .var "next_state", 1 0;
v0x5f38f3630ed0_0 .net "read_addr", 31 0, v0x5f38f3633a20_0;  alias, 1 drivers
v0x5f38f3630fb0_0 .var "read_data", 31 0;
v0x5f38f3631090_0 .var "read_done", 0 0;
v0x5f38f3631150_0 .net "read_request", 0 0, v0x5f38f36340b0_0;  alias, 1 drivers
v0x5f38f3631320_0 .var "read_valid", 0 0;
v0x5f38f36313e0_0 .net "rst_n", 0 0, v0x5f38f363f710_0;  alias, 1 drivers
v0x5f38f3631480_0 .var "state", 1 0;
E_0x5f38f354de30 .event edge, v0x5f38f3630ed0_0, v0x5f38f3631480_0;
E_0x5f38f355ae00/0 .event edge, v0x5f38f3631480_0, v0x5f38f3631150_0, v0x5f38f3630930_0, v0x5f38f3630740_0;
E_0x5f38f355ae00/1 .event edge, v0x5f38f3630d30_0, v0x5f38f3630b90_0, v0x5f38f3630ad0_0;
E_0x5f38f355ae00 .event/or E_0x5f38f355ae00/0, E_0x5f38f355ae00/1;
S_0x5f38f3631820 .scope module, "u_axi4_write_master" "axi4_write_master" 4 299, 7 1 0, S_0x5f38f362dad0;
 .timescale 0 0;
    .port_info 0 /INPUT 1 "clk";
    .port_info 1 /INPUT 1 "rst_n";
    .port_info 2 /INPUT 32 "write_addr";
    .port_info 3 /INPUT 1 "write_request";
    .port_info 4 /OUTPUT 1 "write_done";
    .port_info 5 /INPUT 32 "write_data";
    .port_info 6 /INPUT 1 "write_data_valid";
    .port_info 7 /OUTPUT 1 "write_data_ready";
    .port_info 8 /OUTPUT 32 "m_axi_awaddr";
    .port_info 9 /OUTPUT 8 "m_axi_awlen";
    .port_info 10 /OUTPUT 3 "m_axi_awsize";
    .port_info 11 /OUTPUT 2 "m_axi_awburst";
    .port_info 12 /OUTPUT 1 "m_axi_awvalid";
    .port_info 13 /INPUT 1 "m_axi_awready";
    .port_info 14 /OUTPUT 32 "m_axi_wdata";
    .port_info 15 /OUTPUT 4 "m_axi_wstrb";
    .port_info 16 /OUTPUT 1 "m_axi_wlast";
    .port_info 17 /OUTPUT 1 "m_axi_wvalid";
    .port_info 18 /INPUT 1 "m_axi_wready";
    .port_info 19 /INPUT 2 "m_axi_bresp";
    .port_info 20 /INPUT 1 "m_axi_bvalid";
    .port_info 21 /OUTPUT 1 "m_axi_bready";
P_0x5f38f360d8e0 .param/l "ADDR_WIDTH" 0 7 2, +C4<00000000000000000000000000100000>;
P_0x5f38f360d920 .param/l "DATA_WIDTH" 0 7 3, +C4<00000000000000000000000000100000>;
enum0x5f38f35b22a0 .enum4 (2)
   "IDLE" 2'b00,
   "SEND_AW" 2'b01,
   "SEND_W" 2'b10,
   "WAIT_B" 2'b11
 ;
v0x5f38f36302a0_0 .net "clk", 0 0, v0x5f38f363e3d0_0;  alias, 1 drivers
v0x5f38f3631e80_0 .var "m_axi_awaddr", 31 0;
v0x5f38f3631f60_0 .var "m_axi_awburst", 1 0;
v0x5f38f3632020_0 .var "m_axi_awlen", 7 0;
v0x5f38f3632100_0 .net "m_axi_awready", 0 0, L_0x5f38f35d7650;  alias, 1 drivers
v0x5f38f3632210_0 .var "m_axi_awsize", 2 0;
v0x5f38f36322f0_0 .var "m_axi_awvalid", 0 0;
v0x5f38f36323b0_0 .var "m_axi_bready", 0 0;
v0x5f38f3632470_0 .net "m_axi_bresp", 1 0, v0x5f38f363d2f0_0;  alias, 1 drivers
v0x5f38f3632550_0 .net "m_axi_bvalid", 0 0, v0x5f38f363d400_0;  alias, 1 drivers
v0x5f38f3632610_0 .var "m_axi_wdata", 31 0;
v0x5f38f36326f0_0 .var "m_axi_wlast", 0 0;
v0x5f38f36327b0_0 .net "m_axi_wready", 0 0, L_0x5f38f35d8a20;  alias, 1 drivers
v0x5f38f3632870_0 .var "m_axi_wstrb", 3 0;
v0x5f38f3632950_0 .var "m_axi_wvalid", 0 0;
v0x5f38f3632a10_0 .var "next_state", 1 0;
v0x5f38f3632af0_0 .net "rst_n", 0 0, v0x5f38f363f710_0;  alias, 1 drivers
v0x5f38f3632ca0_0 .var "state", 1 0;
v0x5f38f3632d80_0 .net "write_addr", 31 0, v0x5f38f3633960_0;  alias, 1 drivers
v0x5f38f3632e60_0 .net "write_data", 31 0, L_0x5f38f35e0090;  alias, 1 drivers
v0x5f38f3632f40_0 .var "write_data_ready", 0 0;
v0x5f38f3633000_0 .net "write_data_valid", 0 0, L_0x5f38f3651570;  1 drivers
v0x5f38f36330c0_0 .var "write_done", 0 0;
v0x5f38f3633180_0 .net "write_request", 0 0, v0x5f38f3634820_0;  alias, 1 drivers
E_0x5f38f3631d00/0 .event edge, v0x5f38f3632d80_0, v0x5f38f3632e60_0, v0x5f38f3632ca0_0, v0x5f38f3633000_0;
E_0x5f38f3631d00/1 .event edge, v0x5f38f36327b0_0;
E_0x5f38f3631d00 .event/or E_0x5f38f3631d00/0, E_0x5f38f3631d00/1;
E_0x5f38f3631d70/0 .event edge, v0x5f38f3632ca0_0, v0x5f38f3633180_0, v0x5f38f3632100_0, v0x5f38f3633000_0;
E_0x5f38f3631d70/1 .event edge, v0x5f38f36327b0_0, v0x5f38f3632550_0;
E_0x5f38f3631d70 .event/or E_0x5f38f3631d70/0, E_0x5f38f3631d70/1;
S_0x5f38f3633500 .scope module, "u_dma_controller" "dma_controller" 4 208, 8 1 0, S_0x5f38f362dad0;
 .timescale 0 0;
    .port_info 0 /INPUT 1 "clk";
    .port_info 1 /INPUT 1 "rst_n";
    .port_info 2 /INPUT 1 "dma_start";
    .port_info 3 /INPUT 32 "source_addr";
    .port_info 4 /INPUT 32 "dest_addr";
    .port_info 5 /INPUT 32 "transfer_length";
    .port_info 6 /INPUT 1 "read_done";
    .port_info 7 /INPUT 1 "write_done";
    .port_info 8 /OUTPUT 1 "read_request";
    .port_info 9 /OUTPUT 1 "write_request";
    .port_info 10 /OUTPUT 32 "current_source_addr";
    .port_info 11 /OUTPUT 32 "current_dest_addr";
    .port_info 12 /OUTPUT 1 "dma_busy";
    .port_info 13 /OUTPUT 1 "dma_done";
P_0x5f38f36336e0 .param/l "ADDR_WIDTH" 0 8 2, +C4<00000000000000000000000000100000>;
enum0x5f38f34dbb80 .enum4 (3)
   "IDLE" 3'b000,
   "READ_REQ" 3'b001,
   "WRITE_REQ" 3'b010,
   "CHECK" 3'b011,
   "DONE" 3'b100
 ;
v0x5f38f36338a0_0 .net "clk", 0 0, v0x5f38f363e3d0_0;  alias, 1 drivers
v0x5f38f3633960_0 .var "current_dest_addr", 31 0;
v0x5f38f3633a20_0 .var "current_source_addr", 31 0;
v0x5f38f3633b20_0 .net "dest_addr", 31 0, v0x5f38f36369b0_0;  alias, 1 drivers
v0x5f38f3633bc0_0 .var "dest_reg", 31 0;
v0x5f38f3633cf0_0 .var "dma_busy", 0 0;
v0x5f38f3633db0_0 .var "dma_done", 0 0;
v0x5f38f3633e70_0 .net "dma_start", 0 0, v0x5f38f3636c70_0;  alias, 1 drivers
v0x5f38f3633f30_0 .var "next_state", 2 0;
v0x5f38f3634010_0 .net "read_done", 0 0, v0x5f38f3631090_0;  alias, 1 drivers
v0x5f38f36340b0_0 .var "read_request", 0 0;
v0x5f38f3634180_0 .var "remaining_bytes", 31 0;
v0x5f38f3634220_0 .net "rst_n", 0 0, v0x5f38f363f710_0;  alias, 1 drivers
v0x5f38f36342c0_0 .net "source_addr", 31 0, v0x5f38f3637290_0;  alias, 1 drivers
v0x5f38f36343a0_0 .var "source_reg", 31 0;
v0x5f38f3634480_0 .var "state", 2 0;
v0x5f38f3634560_0 .net "transfer_length", 31 0, v0x5f38f3637360_0;  alias, 1 drivers
v0x5f38f3634750_0 .net "write_done", 0 0, v0x5f38f36330c0_0;  alias, 1 drivers
v0x5f38f3634820_0 .var "write_request", 0 0;
E_0x5f38f3633780 .event edge, v0x5f38f36343a0_0, v0x5f38f3633bc0_0, v0x5f38f3634480_0;
E_0x5f38f3633800/0 .event edge, v0x5f38f3634480_0, v0x5f38f3633e70_0, v0x5f38f3634560_0, v0x5f38f3631090_0;
E_0x5f38f3633800/1 .event edge, v0x5f38f36330c0_0, v0x5f38f3634180_0;
E_0x5f38f3633800 .event/or E_0x5f38f3633800/0, E_0x5f38f3633800/1;
S_0x5f38f3634a70 .scope module, "u_dma_fifo" "dma_fifo" 4 271, 9 1 0, S_0x5f38f362dad0;
 .timescale 0 0;
    .port_info 0 /INPUT 1 "clk";
    .port_info 1 /INPUT 1 "rst_n";
    .port_info 2 /INPUT 32 "wr_data";
    .port_info 3 /INPUT 1 "wr_en";
    .port_info 4 /OUTPUT 32 "rd_data";
    .port_info 5 /INPUT 1 "rd_en";
    .port_info 6 /OUTPUT 1 "full";
    .port_info 7 /OUTPUT 1 "empty";
    .port_info 8 /OUTPUT 3 "count";
P_0x5f38f34dc620 .param/l "DATA_WIDTH" 0 9 2, +C4<00000000000000000000000000100000>;
P_0x5f38f34dc660 .param/l "DEPTH" 0 9 3, +C4<00000000000000000000000000000100>;
P_0x5f38f34dc6a0 .param/l "PTR_WIDTH" 1 9 19, +C4<00000000000000000000000000000010>;
L_0x5f38f35e0090 .functor BUFZ 32, L_0x5f38f3640b50, C4<00000000000000000000000000000000>, C4<00000000000000000000000000000000>, C4<00000000000000000000000000000000>;
v0x5f38f3634df0_0 .net *"_ivl_0", 31 0, L_0x5f38f3640b50;  1 drivers
L_0x71572063b060 .functor BUFT 1, C4<00000000000000000000000000000>, C4<0>, C4<0>, C4<0>;
v0x5f38f3634ef0_0 .net *"_ivl_11", 28 0, L_0x71572063b060;  1 drivers
L_0x71572063b0a8 .functor BUFT 1, C4<00000000000000000000000000000000>, C4<0>, C4<0>, C4<0>;
v0x5f38f3634fd0_0 .net/2u *"_ivl_12", 31 0, L_0x71572063b0a8;  1 drivers
v0x5f38f36350c0_0 .net *"_ivl_16", 31 0, L_0x5f38f3651080;  1 drivers
L_0x71572063b0f0 .functor BUFT 1, C4<00000000000000000000000000000>, C4<0>, C4<0>, C4<0>;
v0x5f38f36351a0_0 .net *"_ivl_19", 28 0, L_0x71572063b0f0;  1 drivers
v0x5f38f36352d0_0 .net *"_ivl_2", 3 0, L_0x5f38f3640c10;  1 drivers
L_0x71572063b138 .functor BUFT 1, C4<00000000000000000000000000000100>, C4<0>, C4<0>, C4<0>;
v0x5f38f36353b0_0 .net/2u *"_ivl_20", 31 0, L_0x71572063b138;  1 drivers
L_0x71572063b018 .functor BUFT 1, C4<00>, C4<0>, C4<0>, C4<0>;
v0x5f38f3635490_0 .net *"_ivl_5", 1 0, L_0x71572063b018;  1 drivers
v0x5f38f3635570_0 .net *"_ivl_8", 31 0, L_0x5f38f3640da0;  1 drivers
v0x5f38f3635650_0 .net "clk", 0 0, v0x5f38f363e3d0_0;  alias, 1 drivers
v0x5f38f36356f0_0 .var "count", 2 0;
v0x5f38f36357d0_0 .net "empty", 0 0, L_0x5f38f3650ef0;  alias, 1 drivers
v0x5f38f3635890_0 .net "full", 0 0, L_0x5f38f36511c0;  alias, 1 drivers
v0x5f38f3635950 .array "mem", 3 0, 31 0;
v0x5f38f3635a10_0 .net "rd_data", 31 0, L_0x5f38f35e0090;  alias, 1 drivers
v0x5f38f3635ad0_0 .net "rd_en", 0 0, L_0x5f38f35d5f00;  alias, 1 drivers
v0x5f38f3635b70_0 .var "rd_ptr", 1 0;
v0x5f38f3635d60_0 .net "rst_n", 0 0, v0x5f38f363f710_0;  alias, 1 drivers
v0x5f38f3635e00_0 .net "wr_data", 31 0, v0x5f38f3630fb0_0;  alias, 1 drivers
v0x5f38f3635ef0_0 .net "wr_en", 0 0, L_0x5f38f35b3c90;  alias, 1 drivers
v0x5f38f3635f90_0 .var "wr_ptr", 1 0;
L_0x5f38f3640b50 .array/port v0x5f38f3635950, L_0x5f38f3640c10;
L_0x5f38f3640c10 .concat [ 2 2 0 0], v0x5f38f3635b70_0, L_0x71572063b018;
L_0x5f38f3640da0 .concat [ 3 29 0 0], v0x5f38f36356f0_0, L_0x71572063b060;
L_0x5f38f3650ef0 .cmp/eq 32, L_0x5f38f3640da0, L_0x71572063b0a8;
L_0x5f38f3651080 .concat [ 3 29 0 0], v0x5f38f36356f0_0, L_0x71572063b0f0;
L_0x5f38f36511c0 .cmp/eq 32, L_0x5f38f3651080, L_0x71572063b138;
S_0x5f38f3636190 .scope module, "u_dma_registers" "dma_registers" 4 180, 10 1 0, S_0x5f38f362dad0;
 .timescale 0 0;
    .port_info 0 /INPUT 1 "clk";
    .port_info 1 /INPUT 1 "rst_n";
    .port_info 2 /INPUT 1 "reg_write_en";
    .port_info 3 /INPUT 32 "reg_write_addr";
    .port_info 4 /INPUT 32 "reg_write_data";
    .port_info 5 /INPUT 1 "reg_read_en";
    .port_info 6 /INPUT 32 "reg_read_addr";
    .port_info 7 /OUTPUT 32 "reg_read_data";
    .port_info 8 /INPUT 1 "dma_busy";
    .port_info 9 /INPUT 1 "dma_done";
    .port_info 10 /OUTPUT 32 "source_addr";
    .port_info 11 /OUTPUT 32 "dest_addr";
    .port_info 12 /OUTPUT 32 "transfer_length";
    .port_info 13 /OUTPUT 1 "dma_start";
P_0x5f38f3636320 .param/l "ADDR_WIDTH" 0 10 2, +C4<00000000000000000000000000100000>;
P_0x5f38f3636360 .param/l "CONTROL_ADDR" 1 10 29, C4<00000000000000000000000000000000>;
P_0x5f38f36363a0 .param/l "DEST_ADDR" 1 10 32, C4<00000000000000000000000000001100>;
P_0x5f38f36363e0 .param/l "LENGTH_ADDR" 1 10 33, C4<00000000000000000000000000010000>;
P_0x5f38f3636420 .param/l "SOURCE_ADDR" 1 10 31, C4<00000000000000000000000000001000>;
P_0x5f38f3636460 .param/l "STATUS_ADDR" 1 10 30, C4<00000000000000000000000000000100>;
v0x5f38f36368f0_0 .net "clk", 0 0, v0x5f38f363e3d0_0;  alias, 1 drivers
v0x5f38f36369b0_0 .var "dest_addr", 31 0;
v0x5f38f3636aa0_0 .net "dma_busy", 0 0, v0x5f38f3633cf0_0;  alias, 1 drivers
v0x5f38f3636ba0_0 .net "dma_done", 0 0, v0x5f38f3633db0_0;  alias, 1 drivers
v0x5f38f3636c70_0 .var "dma_start", 0 0;
v0x5f38f3636d10_0 .net "reg_read_addr", 31 0, v0x5f38f354d4d0_0;  alias, 1 drivers
v0x5f38f3636de0_0 .var "reg_read_data", 31 0;
v0x5f38f3636eb0_0 .net "reg_read_en", 0 0, v0x5f38f362e910_0;  alias, 1 drivers
v0x5f38f3636f80_0 .net "reg_write_addr", 31 0, v0x5f38f362e9d0_0;  alias, 1 drivers
v0x5f38f3637050_0 .net "reg_write_data", 31 0, v0x5f38f362eab0_0;  alias, 1 drivers
v0x5f38f3637120_0 .net "reg_write_en", 0 0, v0x5f38f362eb90_0;  alias, 1 drivers
v0x5f38f36371f0_0 .net "rst_n", 0 0, v0x5f38f363f710_0;  alias, 1 drivers
v0x5f38f3637290_0 .var "source_addr", 31 0;
v0x5f38f3637360_0 .var "transfer_length", 31 0;
E_0x5f38f3636840/0 .event edge, v0x5f38f362e910_0, v0x5f38f354d4d0_0, v0x5f38f3633e70_0, v0x5f38f3633db0_0;
E_0x5f38f3636840/1 .event edge, v0x5f38f3633cf0_0, v0x5f38f36342c0_0, v0x5f38f3633b20_0, v0x5f38f3634560_0;
E_0x5f38f3636840 .event/or E_0x5f38f3636840/0, E_0x5f38f3636840/1;
S_0x5f38f363b460 .scope module, "memory" "axi_memory_model" 3 165, 11 1 0, S_0x5f38f36128e0;
 .timescale 0 0;
    .port_info 0 /INPUT 1 "clk";
    .port_info 1 /INPUT 1 "rst_n";
    .port_info 2 /INPUT 32 "s_axi_araddr";
    .port_info 3 /INPUT 8 "s_axi_arlen";
    .port_info 4 /INPUT 3 "s_axi_arsize";
    .port_info 5 /INPUT 2 "s_axi_arburst";
    .port_info 6 /INPUT 1 "s_axi_arvalid";
    .port_info 7 /OUTPUT 1 "s_axi_arready";
    .port_info 8 /OUTPUT 32 "s_axi_rdata";
    .port_info 9 /OUTPUT 2 "s_axi_rresp";
    .port_info 10 /OUTPUT 1 "s_axi_rlast";
    .port_info 11 /OUTPUT 1 "s_axi_rvalid";
    .port_info 12 /INPUT 1 "s_axi_rready";
    .port_info 13 /INPUT 32 "s_axi_awaddr";
    .port_info 14 /INPUT 8 "s_axi_awlen";
    .port_info 15 /INPUT 3 "s_axi_awsize";
    .port_info 16 /INPUT 2 "s_axi_awburst";
    .port_info 17 /INPUT 1 "s_axi_awvalid";
    .port_info 18 /OUTPUT 1 "s_axi_awready";
    .port_info 19 /INPUT 32 "s_axi_wdata";
    .port_info 20 /INPUT 4 "s_axi_wstrb";
    .port_info 21 /INPUT 1 "s_axi_wlast";
    .port_info 22 /INPUT 1 "s_axi_wvalid";
    .port_info 23 /OUTPUT 1 "s_axi_wready";
    .port_info 24 /OUTPUT 2 "s_axi_bresp";
    .port_info 25 /OUTPUT 1 "s_axi_bvalid";
    .port_info 26 /INPUT 1 "s_axi_bready";
P_0x5f38f36382a0 .param/l "ADDR_WIDTH" 0 11 2, +C4<00000000000000000000000000100000>;
P_0x5f38f36382e0 .param/l "BYTE_WIDTH" 1 11 60, +C4<00000000000000000000000000000100>;
P_0x5f38f3638320 .param/l "DATA_WIDTH" 0 11 3, +C4<00000000000000000000000000100000>;
P_0x5f38f3638360 .param/l "MEM_DEPTH" 0 11 4, +C4<00000000000000000100000000000000>;
L_0x5f38f35d7140 .functor AND 1, L_0x5f38f3651610, L_0x5f38f36516b0, C4<1>, C4<1>;
L_0x5f38f35d7650 .functor AND 1, L_0x5f38f36517e0, L_0x5f38f3651880, C4<1>, C4<1>;
L_0x5f38f35d8a20 .functor AND 1, v0x5f38f363ded0_0, L_0x5f38f3651a40, C4<1>, C4<1>;
v0x5f38f363bd20_0 .net *"_ivl_1", 0 0, L_0x5f38f3651610;  1 drivers
v0x5f38f363be00_0 .net *"_ivl_13", 0 0, L_0x5f38f3651a40;  1 drivers
v0x5f38f363bec0_0 .net *"_ivl_3", 0 0, L_0x5f38f36516b0;  1 drivers
v0x5f38f363bf90_0 .net *"_ivl_7", 0 0, L_0x5f38f36517e0;  1 drivers
v0x5f38f363c050_0 .net *"_ivl_9", 0 0, L_0x5f38f3651880;  1 drivers
v0x5f38f363c160_0 .net "clk", 0 0, v0x5f38f363e3d0_0;  alias, 1 drivers
v0x5f38f363c200 .array "mem", 16383 0, 31 0;
v0x5f38f363c2c0_0 .var "read_active", 0 0;
v0x5f38f363c380_0 .var "read_addr_reg", 31 0;
v0x5f38f363c460_0 .net "rst_n", 0 0, v0x5f38f363f710_0;  alias, 1 drivers
v0x5f38f363c500_0 .net "s_axi_araddr", 31 0, v0x5f38f36304b0_0;  alias, 1 drivers
v0x5f38f363c5c0_0 .net "s_axi_arburst", 1 0, v0x5f38f3630570_0;  alias, 1 drivers
v0x5f38f363c6d0_0 .net "s_axi_arlen", 7 0, v0x5f38f3630660_0;  alias, 1 drivers
v0x5f38f363c7e0_0 .net "s_axi_arready", 0 0, L_0x5f38f35d7140;  alias, 1 drivers
v0x5f38f363c8d0_0 .net "s_axi_arsize", 2 0, v0x5f38f3630850_0;  alias, 1 drivers
v0x5f38f363c9e0_0 .net "s_axi_arvalid", 0 0, v0x5f38f3630930_0;  alias, 1 drivers
v0x5f38f363cad0_0 .net "s_axi_awaddr", 31 0, v0x5f38f3631e80_0;  alias, 1 drivers
v0x5f38f363ccf0_0 .net "s_axi_awburst", 1 0, v0x5f38f3631f60_0;  alias, 1 drivers
v0x5f38f363ce00_0 .net "s_axi_awlen", 7 0, v0x5f38f3632020_0;  alias, 1 drivers
v0x5f38f363cf10_0 .net "s_axi_awready", 0 0, L_0x5f38f35d7650;  alias, 1 drivers
v0x5f38f363d000_0 .net "s_axi_awsize", 2 0, v0x5f38f3632210_0;  alias, 1 drivers
v0x5f38f363d110_0 .net "s_axi_awvalid", 0 0, v0x5f38f36322f0_0;  alias, 1 drivers
v0x5f38f363d200_0 .net "s_axi_bready", 0 0, v0x5f38f36323b0_0;  alias, 1 drivers
v0x5f38f363d2f0_0 .var "s_axi_bresp", 1 0;
v0x5f38f363d400_0 .var "s_axi_bvalid", 0 0;
v0x5f38f363d4f0_0 .var "s_axi_rdata", 31 0;
v0x5f38f363d600_0 .var "s_axi_rlast", 0 0;
v0x5f38f363d6f0_0 .net "s_axi_rready", 0 0, v0x5f38f3630b90_0;  alias, 1 drivers
v0x5f38f363d7e0_0 .var "s_axi_rresp", 1 0;
v0x5f38f363d8f0_0 .var "s_axi_rvalid", 0 0;
v0x5f38f363d9e0_0 .net "s_axi_wdata", 31 0, v0x5f38f3632610_0;  alias, 1 drivers
v0x5f38f363daf0_0 .net "s_axi_wlast", 0 0, v0x5f38f36326f0_0;  alias, 1 drivers
v0x5f38f363dbe0_0 .net "s_axi_wready", 0 0, L_0x5f38f35d8a20;  alias, 1 drivers
v0x5f38f363dcd0_0 .net "s_axi_wstrb", 3 0, v0x5f38f3632870_0;  alias, 1 drivers
v0x5f38f363dde0_0 .net "s_axi_wvalid", 0 0, v0x5f38f3632950_0;  alias, 1 drivers
v0x5f38f363ded0_0 .var "write_active", 0 0;
v0x5f38f363df90_0 .var "write_addr_reg", 31 0;
L_0x5f38f3651610 .reduce/nor v0x5f38f363c2c0_0;
L_0x5f38f36516b0 .reduce/nor v0x5f38f363d8f0_0;
L_0x5f38f36517e0 .reduce/nor v0x5f38f363ded0_0;
L_0x5f38f3651880 .reduce/nor v0x5f38f363d400_0;
L_0x5f38f3651a40 .reduce/nor v0x5f38f363d400_0;
S_0x5f38f363ba40 .scope begin, "$ivl_for_loop0" "$ivl_for_loop0" 11 185, 11 185 0, S_0x5f38f363b460;
 .timescale 0 0;
v0x5f38f363bc20_0 .var/2s "i", 31 0;
    .scope S_0x5f38f362e1a0;
T_1 ;
Ewait_0 .event/or E_0x5f38f3548110, E_0x0;
    %wait Ewait_0;
    %load/vec4 v0x5f38f35d77b0_0;
    %nor/r;
    %load/vec4 v0x5f38f362f370_0;
    %nor/r;
    %and;
    %store/vec4 v0x5f38f362f050_0, 0, 1;
    %load/vec4 v0x5f38f362fab0_0;
    %nor/r;
    %load/vec4 v0x5f38f362f370_0;
    %nor/r;
    %and;
    %store/vec4 v0x5f38f362f850_0, 0, 1;
    %load/vec4 v0x5f38f362f6b0_0;
    %nor/r;
    %store/vec4 v0x5f38f362edf0_0, 0, 1;
    %jmp T_1;
    .thread T_1, $push;
    .scope S_0x5f38f362e1a0;
T_2 ;
    %wait E_0x5f38f35f4170;
    %load/vec4 v0x5f38f362ec50_0;
    %nor/r;
    %flag_set/vec4 8;
    %jmp/0xz  T_2.0, 8;
    %pushi/vec4 0, 0, 1;
    %assign/vec4 v0x5f38f35d77b0_0, 0;
    %pushi/vec4 0, 0, 1;
    %assign/vec4 v0x5f38f362fab0_0, 0;
    %pushi/vec4 0, 0, 32;
    %assign/vec4 v0x5f38f35d8bc0_0, 0;
    %pushi/vec4 0, 0, 32;
    %assign/vec4 v0x5f38f362fb70_0, 0;
    %pushi/vec4 0, 0, 4;
    %assign/vec4 v0x5f38f362fc50_0, 0;
    %jmp T_2.1;
T_2.0 ;
    %load/vec4 v0x5f38f362f110_0;
    %load/vec4 v0x5f38f362f050_0;
    %and;
    %flag_set/vec4 8;
    %jmp/0xz  T_2.2, 8;
    %pushi/vec4 1, 0, 1;
    %assign/vec4 v0x5f38f35d77b0_0, 0;
    %load/vec4 v0x5f38f362ef70_0;
    %assign/vec4 v0x5f38f35d8bc0_0, 0;
T_2.2 ;
    %load/vec4 v0x5f38f362f9f0_0;
    %load/vec4 v0x5f38f362f850_0;
    %and;
    %flag_set/vec4 8;
    %jmp/0xz  T_2.4, 8;
    %pushi/vec4 1, 0, 1;
    %assign/vec4 v0x5f38f362fab0_0, 0;
    %load/vec4 v0x5f38f362f770_0;
    %assign/vec4 v0x5f38f362fb70_0, 0;
    %load/vec4 v0x5f38f362f910_0;
    %assign/vec4 v0x5f38f362fc50_0, 0;
T_2.4 ;
    %load/vec4 v0x5f38f362f370_0;
    %load/vec4 v0x5f38f362f1d0_0;
    %and;
    %flag_set/vec4 8;
    %jmp/0xz  T_2.6, 8;
    %pushi/vec4 0, 0, 1;
    %assign/vec4 v0x5f38f35d77b0_0, 0;
    %pushi/vec4 0, 0, 1;
    %assign/vec4 v0x5f38f362fab0_0, 0;
T_2.6 ;
T_2.1 ;
    %jmp T_2;
    .thread T_2;
    .scope S_0x5f38f362e1a0;
T_3 ;
Ewait_1 .event/or E_0x5f38f35f8a60, E_0x0;
    %wait Ewait_1;
    %pushi/vec4 0, 0, 1;
    %store/vec4 v0x5f38f362eb90_0, 0, 1;
    %load/vec4 v0x5f38f35d8bc0_0;
    %store/vec4 v0x5f38f362e9d0_0, 0, 32;
    %load/vec4 v0x5f38f362fb70_0;
    %store/vec4 v0x5f38f362eab0_0, 0, 32;
    %load/vec4 v0x5f38f35d77b0_0;
    %load/vec4 v0x5f38f362fab0_0;
    %and;
    %load/vec4 v0x5f38f362f370_0;
    %nor/r;
    %and;
    %flag_set/vec4 8;
    %jmp/0xz  T_3.0, 8;
    %pushi/vec4 1, 0, 1;
    %store/vec4 v0x5f38f362eb90_0, 0, 1;
T_3.0 ;
    %jmp T_3;
    .thread T_3, $push;
    .scope S_0x5f38f362e1a0;
T_4 ;
    %wait E_0x5f38f35f4170;
    %load/vec4 v0x5f38f362ec50_0;
    %nor/r;
    %flag_set/vec4 8;
    %jmp/0xz  T_4.0, 8;
    %pushi/vec4 0, 0, 1;
    %assign/vec4 v0x5f38f362f370_0, 0;
    %pushi/vec4 0, 0, 2;
    %assign/vec4 v0x5f38f362f290_0, 0;
    %jmp T_4.1;
T_4.0 ;
    %load/vec4 v0x5f38f35d77b0_0;
    %load/vec4 v0x5f38f362fab0_0;
    %and;
    %load/vec4 v0x5f38f362f370_0;
    %nor/r;
    %and;
    %flag_set/vec4 8;
    %jmp/0xz  T_4.2, 8;
    %pushi/vec4 1, 0, 1;
    %assign/vec4 v0x5f38f362f370_0, 0;
    %pushi/vec4 0, 0, 2;
    %assign/vec4 v0x5f38f362f290_0, 0;
    %jmp T_4.3;
T_4.2 ;
    %load/vec4 v0x5f38f362f370_0;
    %load/vec4 v0x5f38f362f1d0_0;
    %and;
    %flag_set/vec4 8;
    %jmp/0xz  T_4.4, 8;
    %pushi/vec4 0, 0, 1;
    %assign/vec4 v0x5f38f362f370_0, 0;
T_4.4 ;
T_4.3 ;
T_4.1 ;
    %jmp T_4;
    .thread T_4;
    .scope S_0x5f38f362e1a0;
T_5 ;
    %wait E_0x5f38f35f4170;
    %load/vec4 v0x5f38f362ec50_0;
    %nor/r;
    %flag_set/vec4 8;
    %jmp/0xz  T_5.0, 8;
    %pushi/vec4 0, 0, 1;
    %assign/vec4 v0x5f38f362e910_0, 0;
    %pushi/vec4 0, 0, 32;
    %assign/vec4 v0x5f38f354d4d0_0, 0;
    %jmp T_5.1;
T_5.0 ;
    %pushi/vec4 0, 0, 1;
    %assign/vec4 v0x5f38f362e910_0, 0;
    %load/vec4 v0x5f38f362eeb0_0;
    %load/vec4 v0x5f38f362edf0_0;
    %and;
    %flag_set/vec4 8;
    %jmp/0xz  T_5.2, 8;
    %pushi/vec4 1, 0, 1;
    %assign/vec4 v0x5f38f362e910_0, 0;
    %load/vec4 v0x5f38f362ed10_0;
    %assign/vec4 v0x5f38f354d4d0_0, 0;
T_5.2 ;
T_5.1 ;
    %jmp T_5;
    .thread T_5;
    .scope S_0x5f38f362e1a0;
T_6 ;
    %wait E_0x5f38f35f4170;
    %load/vec4 v0x5f38f362ec50_0;
    %nor/r;
    %flag_set/vec4 8;
    %jmp/0xz  T_6.0, 8;
    %pushi/vec4 0, 0, 1;
    %assign/vec4 v0x5f38f362f6b0_0, 0;
    %pushi/vec4 0, 0, 32;
    %assign/vec4 v0x5f38f362f430_0, 0;
    %pushi/vec4 0, 0, 2;
    %assign/vec4 v0x5f38f362f5d0_0, 0;
    %jmp T_6.1;
T_6.0 ;
    %load/vec4 v0x5f38f362eeb0_0;
    %load/vec4 v0x5f38f362edf0_0;
    %and;
    %flag_set/vec4 8;
    %jmp/0xz  T_6.2, 8;
    %pushi/vec4 1, 0, 1;
    %assign/vec4 v0x5f38f362f6b0_0, 0;
    %pushi/vec4 0, 0, 2;
    %assign/vec4 v0x5f38f362f5d0_0, 0;
    %load/vec4 v0x5f38f362ed10_0;
    %dup/vec4;
    %pushi/vec4 0, 0, 32;
    %cmp/u;
    %jmp/1 T_6.4, 6;
    %dup/vec4;
    %pushi/vec4 4, 0, 32;
    %cmp/u;
    %jmp/1 T_6.5, 6;
    %dup/vec4;
    %pushi/vec4 8, 0, 32;
    %cmp/u;
    %jmp/1 T_6.6, 6;
    %dup/vec4;
    %pushi/vec4 12, 0, 32;
    %cmp/u;
    %jmp/1 T_6.7, 6;
    %dup/vec4;
    %pushi/vec4 16, 0, 32;
    %cmp/u;
    %jmp/1 T_6.8, 6;
    %pushi/vec4 0, 0, 32;
    %assign/vec4 v0x5f38f362f430_0, 0;
    %jmp T_6.10;
T_6.4 ;
    %pushi/vec4 0, 0, 32;
    %assign/vec4 v0x5f38f362f430_0, 0;
    %jmp T_6.10;
T_6.5 ;
    %load/vec4 v0x5f38f362e7e0_0;
    %assign/vec4 v0x5f38f362f430_0, 0;
    %jmp T_6.10;
T_6.6 ;
    %load/vec4 v0x5f38f362e7e0_0;
    %assign/vec4 v0x5f38f362f430_0, 0;
    %jmp T_6.10;
T_6.7 ;
    %load/vec4 v0x5f38f362e7e0_0;
    %assign/vec4 v0x5f38f362f430_0, 0;
    %jmp T_6.10;
T_6.8 ;
    %load/vec4 v0x5f38f362e7e0_0;
    %assign/vec4 v0x5f38f362f430_0, 0;
    %jmp T_6.10;
T_6.10 ;
    %pop/vec4 1;
    %jmp T_6.3;
T_6.2 ;
    %load/vec4 v0x5f38f362f6b0_0;
    %load/vec4 v0x5f38f362f510_0;
    %and;
    %flag_set/vec4 8;
    %jmp/0xz  T_6.11, 8;
    %pushi/vec4 0, 0, 1;
    %assign/vec4 v0x5f38f362f6b0_0, 0;
T_6.11 ;
T_6.3 ;
T_6.1 ;
    %jmp T_6;
    .thread T_6;
    .scope S_0x5f38f3636190;
T_7 ;
    %wait E_0x5f38f35f4170;
    %load/vec4 v0x5f38f36371f0_0;
    %nor/r;
    %flag_set/vec4 8;
    %jmp/0xz  T_7.0, 8;
    %pushi/vec4 0, 0, 32;
    %assign/vec4 v0x5f38f3637290_0, 0;
    %pushi/vec4 0, 0, 32;
    %assign/vec4 v0x5f38f36369b0_0, 0;
    %pushi/vec4 0, 0, 32;
    %assign/vec4 v0x5f38f3637360_0, 0;
    %pushi/vec4 0, 0, 1;
    %assign/vec4 v0x5f38f3636c70_0, 0;
    %jmp T_7.1;
T_7.0 ;
    %pushi/vec4 0, 0, 1;
    %assign/vec4 v0x5f38f3636c70_0, 0;
    %load/vec4 v0x5f38f3637120_0;
    %flag_set/vec4 8;
    %jmp/0xz  T_7.2, 8;
    %load/vec4 v0x5f38f3636f80_0;
    %dup/vec4;
    %pushi/vec4 0, 0, 32;
    %cmp/u;
    %jmp/1 T_7.4, 6;
    %dup/vec4;
    %pushi/vec4 8, 0, 32;
    %cmp/u;
    %jmp/1 T_7.5, 6;
    %dup/vec4;
    %pushi/vec4 12, 0, 32;
    %cmp/u;
    %jmp/1 T_7.6, 6;
    %dup/vec4;
    %pushi/vec4 16, 0, 32;
    %cmp/u;
    %jmp/1 T_7.7, 6;
    %jmp T_7.9;
T_7.4 ;
    %load/vec4 v0x5f38f3637050_0;
    %parti/s 1, 0, 2;
    %assign/vec4 v0x5f38f3636c70_0, 0;
    %jmp T_7.9;
T_7.5 ;
    %load/vec4 v0x5f38f3637050_0;
    %assign/vec4 v0x5f38f3637290_0, 0;
    %jmp T_7.9;
T_7.6 ;
    %load/vec4 v0x5f38f3637050_0;
    %assign/vec4 v0x5f38f36369b0_0, 0;
    %jmp T_7.9;
T_7.7 ;
    %load/vec4 v0x5f38f3637050_0;
    %assign/vec4 v0x5f38f3637360_0, 0;
    %jmp T_7.9;
T_7.9 ;
    %pop/vec4 1;
T_7.2 ;
T_7.1 ;
    %jmp T_7;
    .thread T_7;
    .scope S_0x5f38f3636190;
T_8 ;
Ewait_2 .event/or E_0x5f38f3636840, E_0x0;
    %wait Ewait_2;
    %pushi/vec4 0, 0, 32;
    %store/vec4 v0x5f38f3636de0_0, 0, 32;
    %load/vec4 v0x5f38f3636eb0_0;
    %flag_set/vec4 8;
    %jmp/0xz  T_8.0, 8;
    %load/vec4 v0x5f38f3636d10_0;
    %dup/vec4;
    %pushi/vec4 0, 0, 32;
    %cmp/u;
    %jmp/1 T_8.2, 6;
    %dup/vec4;
    %pushi/vec4 4, 0, 32;
    %cmp/u;
    %jmp/1 T_8.3, 6;
    %dup/vec4;
    %pushi/vec4 8, 0, 32;
    %cmp/u;
    %jmp/1 T_8.4, 6;
    %dup/vec4;
    %pushi/vec4 12, 0, 32;
    %cmp/u;
    %jmp/1 T_8.5, 6;
    %dup/vec4;
    %pushi/vec4 16, 0, 32;
    %cmp/u;
    %jmp/1 T_8.6, 6;
    %pushi/vec4 0, 0, 32;
    %store/vec4 v0x5f38f3636de0_0, 0, 32;
    %jmp T_8.8;
T_8.2 ;
    %pushi/vec4 0, 0, 31;
    %load/vec4 v0x5f38f3636c70_0;
    %concat/vec4; draw_concat_vec4
    %store/vec4 v0x5f38f3636de0_0, 0, 32;
    %jmp T_8.8;
T_8.3 ;
    %pushi/vec4 0, 0, 30;
    %load/vec4 v0x5f38f3636ba0_0;
    %concat/vec4; draw_concat_vec4
    %load/vec4 v0x5f38f3636aa0_0;
    %concat/vec4; draw_concat_vec4
    %store/vec4 v0x5f38f3636de0_0, 0, 32;
    %jmp T_8.8;
T_8.4 ;
    %load/vec4 v0x5f38f3637290_0;
    %store/vec4 v0x5f38f3636de0_0, 0, 32;
    %jmp T_8.8;
T_8.5 ;
    %load/vec4 v0x5f38f36369b0_0;
    %store/vec4 v0x5f38f3636de0_0, 0, 32;
    %jmp T_8.8;
T_8.6 ;
    %load/vec4 v0x5f38f3637360_0;
    %store/vec4 v0x5f38f3636de0_0, 0, 32;
    %jmp T_8.8;
T_8.8 ;
    %pop/vec4 1;
T_8.0 ;
    %jmp T_8;
    .thread T_8, $push;
    .scope S_0x5f38f3633500;
T_9 ;
    %wait E_0x5f38f35f4170;
    %load/vec4 v0x5f38f3634220_0;
    %nor/r;
    %flag_set/vec4 8;
    %jmp/0xz  T_9.0, 8;
    %pushi/vec4 0, 0, 3;
    %assign/vec4 v0x5f38f3634480_0, 0;
    %jmp T_9.1;
T_9.0 ;
    %load/vec4 v0x5f38f3633f30_0;
    %assign/vec4 v0x5f38f3634480_0, 0;
T_9.1 ;
    %jmp T_9;
    .thread T_9;
    .scope S_0x5f38f3633500;
T_10 ;
Ewait_3 .event/or E_0x5f38f3633800, E_0x0;
    %wait Ewait_3;
    %load/vec4 v0x5f38f3634480_0;
    %store/vec4 v0x5f38f3633f30_0, 0, 3;
    %load/vec4 v0x5f38f3634480_0;
    %dup/vec4;
    %pushi/vec4 0, 0, 3;
    %cmp/u;
    %jmp/1 T_10.0, 6;
    %dup/vec4;
    %pushi/vec4 1, 0, 3;
    %cmp/u;
    %jmp/1 T_10.1, 6;
    %dup/vec4;
    %pushi/vec4 2, 0, 3;
    %cmp/u;
    %jmp/1 T_10.2, 6;
    %dup/vec4;
    %pushi/vec4 3, 0, 3;
    %cmp/u;
    %jmp/1 T_10.3, 6;
    %dup/vec4;
    %pushi/vec4 4, 0, 3;
    %cmp/u;
    %jmp/1 T_10.4, 6;
    %pushi/vec4 0, 0, 3;
    %store/vec4 v0x5f38f3633f30_0, 0, 3;
    %jmp T_10.6;
T_10.0 ;
    %load/vec4 v0x5f38f3633e70_0;
    %load/vec4 v0x5f38f3634560_0;
    %pushi/vec4 0, 0, 32;
    %cmp/ne;
    %flag_get/vec4 4;
    %and;
    %flag_set/vec4 8;
    %jmp/0xz  T_10.7, 8;
    %pushi/vec4 1, 0, 3;
    %store/vec4 v0x5f38f3633f30_0, 0, 3;
T_10.7 ;
    %jmp T_10.6;
T_10.1 ;
    %load/vec4 v0x5f38f3634010_0;
    %flag_set/vec4 8;
    %jmp/0xz  T_10.9, 8;
    %pushi/vec4 2, 0, 3;
    %store/vec4 v0x5f38f3633f30_0, 0, 3;
T_10.9 ;
    %jmp T_10.6;
T_10.2 ;
    %load/vec4 v0x5f38f3634750_0;
    %flag_set/vec4 8;
    %jmp/0xz  T_10.11, 8;
    %pushi/vec4 3, 0, 3;
    %store/vec4 v0x5f38f3633f30_0, 0, 3;
T_10.11 ;
    %jmp T_10.6;
T_10.3 ;
    %load/vec4 v0x5f38f3634180_0;
    %cmpi/u 4, 0, 32;
    %flag_or 5, 4; GT is !LE
    %flag_inv 5;
    %jmp/0xz  T_10.13, 5;
    %pushi/vec4 1, 0, 3;
    %store/vec4 v0x5f38f3633f30_0, 0, 3;
    %jmp T_10.14;
T_10.13 ;
    %pushi/vec4 4, 0, 3;
    %store/vec4 v0x5f38f3633f30_0, 0, 3;
T_10.14 ;
    %jmp T_10.6;
T_10.4 ;
    %pushi/vec4 0, 0, 3;
    %store/vec4 v0x5f38f3633f30_0, 0, 3;
    %jmp T_10.6;
T_10.6 ;
    %pop/vec4 1;
    %jmp T_10;
    .thread T_10, $push;
    .scope S_0x5f38f3633500;
T_11 ;
    %wait E_0x5f38f35f4170;
    %load/vec4 v0x5f38f3634220_0;
    %nor/r;
    %flag_set/vec4 8;
    %jmp/0xz  T_11.0, 8;
    %pushi/vec4 0, 0, 32;
    %assign/vec4 v0x5f38f36343a0_0, 0;
    %pushi/vec4 0, 0, 32;
    %assign/vec4 v0x5f38f3633bc0_0, 0;
    %pushi/vec4 0, 0, 32;
    %assign/vec4 v0x5f38f3634180_0, 0;
    %jmp T_11.1;
T_11.0 ;
    %load/vec4 v0x5f38f3634480_0;
    %dup/vec4;
    %pushi/vec4 0, 0, 3;
    %cmp/u;
    %jmp/1 T_11.2, 6;
    %dup/vec4;
    %pushi/vec4 2, 0, 3;
    %cmp/u;
    %jmp/1 T_11.3, 6;
    %dup/vec4;
    %pushi/vec4 3, 0, 3;
    %cmp/u;
    %jmp/1 T_11.4, 6;
    %jmp T_11.6;
T_11.2 ;
    %load/vec4 v0x5f38f3633e70_0;
    %load/vec4 v0x5f38f3634560_0;
    %pushi/vec4 0, 0, 32;
    %cmp/ne;
    %flag_get/vec4 4;
    %and;
    %flag_set/vec4 8;
    %jmp/0xz  T_11.7, 8;
    %load/vec4 v0x5f38f36342c0_0;
    %assign/vec4 v0x5f38f36343a0_0, 0;
    %load/vec4 v0x5f38f3633b20_0;
    %assign/vec4 v0x5f38f3633bc0_0, 0;
    %load/vec4 v0x5f38f3634560_0;
    %assign/vec4 v0x5f38f3634180_0, 0;
T_11.7 ;
    %jmp T_11.6;
T_11.3 ;
    %load/vec4 v0x5f38f3634750_0;
    %flag_set/vec4 8;
    %jmp/0xz  T_11.9, 8;
    %load/vec4 v0x5f38f36343a0_0;
    %addi 4, 0, 32;
    %assign/vec4 v0x5f38f36343a0_0, 0;
    %load/vec4 v0x5f38f3633bc0_0;
    %addi 4, 0, 32;
    %assign/vec4 v0x5f38f3633bc0_0, 0;
T_11.9 ;
    %jmp T_11.6;
T_11.4 ;
    %load/vec4 v0x5f38f3634180_0;
    %cmpi/u 4, 0, 32;
    %flag_or 5, 4; GT is !LE
    %flag_inv 5;
    %jmp/0xz  T_11.11, 5;
    %load/vec4 v0x5f38f3634180_0;
    %subi 4, 0, 32;
    %assign/vec4 v0x5f38f3634180_0, 0;
    %jmp T_11.12;
T_11.11 ;
    %pushi/vec4 0, 0, 32;
    %assign/vec4 v0x5f38f3634180_0, 0;
T_11.12 ;
    %jmp T_11.6;
T_11.6 ;
    %pop/vec4 1;
T_11.1 ;
    %jmp T_11;
    .thread T_11;
    .scope S_0x5f38f3633500;
T_12 ;
Ewait_4 .event/or E_0x5f38f3633780, E_0x0;
    %wait Ewait_4;
    %pushi/vec4 0, 0, 1;
    %store/vec4 v0x5f38f36340b0_0, 0, 1;
    %pushi/vec4 0, 0, 1;
    %store/vec4 v0x5f38f3634820_0, 0, 1;
    %pushi/vec4 0, 0, 1;
    %store/vec4 v0x5f38f3633cf0_0, 0, 1;
    %pushi/vec4 0, 0, 1;
    %store/vec4 v0x5f38f3633db0_0, 0, 1;
    %load/vec4 v0x5f38f36343a0_0;
    %store/vec4 v0x5f38f3633a20_0, 0, 32;
    %load/vec4 v0x5f38f3633bc0_0;
    %store/vec4 v0x5f38f3633960_0, 0, 32;
    %load/vec4 v0x5f38f3634480_0;
    %dup/vec4;
    %pushi/vec4 1, 0, 3;
    %cmp/u;
    %jmp/1 T_12.0, 6;
    %dup/vec4;
    %pushi/vec4 2, 0, 3;
    %cmp/u;
    %jmp/1 T_12.1, 6;
    %dup/vec4;
    %pushi/vec4 3, 0, 3;
    %cmp/u;
    %jmp/1 T_12.2, 6;
    %dup/vec4;
    %pushi/vec4 4, 0, 3;
    %cmp/u;
    %jmp/1 T_12.3, 6;
    %jmp T_12.5;
T_12.0 ;
    %pushi/vec4 1, 0, 1;
    %store/vec4 v0x5f38f36340b0_0, 0, 1;
    %pushi/vec4 1, 0, 1;
    %store/vec4 v0x5f38f3633cf0_0, 0, 1;
    %jmp T_12.5;
T_12.1 ;
    %pushi/vec4 1, 0, 1;
    %store/vec4 v0x5f38f3634820_0, 0, 1;
    %pushi/vec4 1, 0, 1;
    %store/vec4 v0x5f38f3633cf0_0, 0, 1;
    %jmp T_12.5;
T_12.2 ;
    %pushi/vec4 1, 0, 1;
    %store/vec4 v0x5f38f3633cf0_0, 0, 1;
    %jmp T_12.5;
T_12.3 ;
    %pushi/vec4 1, 0, 1;
    %store/vec4 v0x5f38f3633db0_0, 0, 1;
    %jmp T_12.5;
T_12.5 ;
    %pop/vec4 1;
    %jmp T_12;
    .thread T_12, $push;
    .scope S_0x5f38f3630050;
T_13 ;
    %wait E_0x5f38f35f4170;
    %load/vec4 v0x5f38f36313e0_0;
    %nor/r;
    %flag_set/vec4 8;
    %jmp/0xz  T_13.0, 8;
    %pushi/vec4 0, 0, 2;
    %assign/vec4 v0x5f38f3631480_0, 0;
    %jmp T_13.1;
T_13.0 ;
    %load/vec4 v0x5f38f3630df0_0;
    %assign/vec4 v0x5f38f3631480_0, 0;
T_13.1 ;
    %jmp T_13;
    .thread T_13;
    .scope S_0x5f38f3630050;
T_14 ;
Ewait_5 .event/or E_0x5f38f355ae00, E_0x0;
    %wait Ewait_5;
    %load/vec4 v0x5f38f3631480_0;
    %store/vec4 v0x5f38f3630df0_0, 0, 2;
    %load/vec4 v0x5f38f3631480_0;
    %dup/vec4;
    %pushi/vec4 0, 0, 2;
    %cmp/u;
    %jmp/1 T_14.0, 6;
    %dup/vec4;
    %pushi/vec4 1, 0, 2;
    %cmp/u;
    %jmp/1 T_14.1, 6;
    %dup/vec4;
    %pushi/vec4 2, 0, 2;
    %cmp/u;
    %jmp/1 T_14.2, 6;
    %pushi/vec4 0, 0, 2;
    %store/vec4 v0x5f38f3630df0_0, 0, 2;
    %jmp T_14.4;
T_14.0 ;
    %load/vec4 v0x5f38f3631150_0;
    %flag_set/vec4 8;
    %jmp/0xz  T_14.5, 8;
    %pushi/vec4 1, 0, 2;
    %store/vec4 v0x5f38f3630df0_0, 0, 2;
T_14.5 ;
    %jmp T_14.4;
T_14.1 ;
    %load/vec4 v0x5f38f3630930_0;
    %load/vec4 v0x5f38f3630740_0;
    %and;
    %flag_set/vec4 8;
    %jmp/0xz  T_14.7, 8;
    %pushi/vec4 2, 0, 2;
    %store/vec4 v0x5f38f3630df0_0, 0, 2;
T_14.7 ;
    %jmp T_14.4;
T_14.2 ;
    %load/vec4 v0x5f38f3630d30_0;
    %load/vec4 v0x5f38f3630b90_0;
    %and;
    %load/vec4 v0x5f38f3630ad0_0;
    %and;
    %flag_set/vec4 8;
    %jmp/0xz  T_14.9, 8;
    %pushi/vec4 0, 0, 2;
    %store/vec4 v0x5f38f3630df0_0, 0, 2;
T_14.9 ;
    %jmp T_14.4;
T_14.4 ;
    %pop/vec4 1;
    %jmp T_14;
    .thread T_14, $push;
    .scope S_0x5f38f3630050;
T_15 ;
Ewait_6 .event/or E_0x5f38f354de30, E_0x0;
    %wait Ewait_6;
    %load/vec4 v0x5f38f3630ed0_0;
    %store/vec4 v0x5f38f36304b0_0, 0, 32;
    %pushi/vec4 0, 0, 8;
    %store/vec4 v0x5f38f3630660_0, 0, 8;
    %pushi/vec4 2, 0, 3;
    %store/vec4 v0x5f38f3630850_0, 0, 3;
    %pushi/vec4 1, 0, 2;
    %store/vec4 v0x5f38f3630570_0, 0, 2;
    %pushi/vec4 0, 0, 1;
    %store/vec4 v0x5f38f3630930_0, 0, 1;
    %pushi/vec4 0, 0, 1;
    %store/vec4 v0x5f38f3630b90_0, 0, 1;
    %load/vec4 v0x5f38f3631480_0;
    %dup/vec4;
    %pushi/vec4 1, 0, 2;
    %cmp/u;
    %jmp/1 T_15.0, 6;
    %dup/vec4;
    %pushi/vec4 2, 0, 2;
    %cmp/u;
    %jmp/1 T_15.1, 6;
    %jmp T_15.3;
T_15.0 ;
    %pushi/vec4 1, 0, 1;
    %store/vec4 v0x5f38f3630930_0, 0, 1;
    %jmp T_15.3;
T_15.1 ;
    %pushi/vec4 1, 0, 1;
    %store/vec4 v0x5f38f3630b90_0, 0, 1;
    %jmp T_15.3;
T_15.3 ;
    %pop/vec4 1;
    %jmp T_15;
    .thread T_15, $push;
    .scope S_0x5f38f3630050;
T_16 ;
    %wait E_0x5f38f35f4170;
    %load/vec4 v0x5f38f36313e0_0;
    %nor/r;
    %flag_set/vec4 8;
    %jmp/0xz  T_16.0, 8;
    %pushi/vec4 0, 0, 32;
    %assign/vec4 v0x5f38f3630fb0_0, 0;
    %pushi/vec4 0, 0, 1;
    %assign/vec4 v0x5f38f3631320_0, 0;
    %pushi/vec4 0, 0, 1;
    %assign/vec4 v0x5f38f3631090_0, 0;
    %jmp T_16.1;
T_16.0 ;
    %pushi/vec4 0, 0, 1;
    %assign/vec4 v0x5f38f3631320_0, 0;
    %pushi/vec4 0, 0, 1;
    %assign/vec4 v0x5f38f3631090_0, 0;
    %load/vec4 v0x5f38f3630d30_0;
    %load/vec4 v0x5f38f3630b90_0;
    %and;
    %flag_set/vec4 8;
    %jmp/0xz  T_16.2, 8;
    %load/vec4 v0x5f38f36309f0_0;
    %assign/vec4 v0x5f38f3630fb0_0, 0;
    %pushi/vec4 1, 0, 1;
    %assign/vec4 v0x5f38f3631320_0, 0;
    %load/vec4 v0x5f38f3630ad0_0;
    %flag_set/vec4 8;
    %jmp/0xz  T_16.4, 8;
    %pushi/vec4 1, 0, 1;
    %assign/vec4 v0x5f38f3631090_0, 0;
T_16.4 ;
T_16.2 ;
T_16.1 ;
    %jmp T_16;
    .thread T_16;
    .scope S_0x5f38f3634a70;
T_17 ;
    %wait E_0x5f38f35f4170;
    %load/vec4 v0x5f38f3635d60_0;
    %nor/r;
    %flag_set/vec4 8;
    %jmp/0xz  T_17.0, 8;
    %pushi/vec4 0, 0, 2;
    %assign/vec4 v0x5f38f3635f90_0, 0;
    %pushi/vec4 0, 0, 2;
    %assign/vec4 v0x5f38f3635b70_0, 0;
    %pushi/vec4 0, 0, 3;
    %assign/vec4 v0x5f38f36356f0_0, 0;
    %jmp T_17.1;
T_17.0 ;
    %load/vec4 v0x5f38f3635ef0_0;
    %load/vec4 v0x5f38f3635890_0;
    %nor/r;
    %and;
    %flag_set/vec4 8;
    %jmp/0xz  T_17.2, 8;
    %load/vec4 v0x5f38f3635e00_0;
    %load/vec4 v0x5f38f3635f90_0;
    %pad/u 4;
    %ix/vec4 3;
    %ix/load 4, 0, 0; Constant delay
    %assign/vec4/a/d v0x5f38f3635950, 0, 4;
    %load/vec4 v0x5f38f3635f90_0;
    %addi 1, 0, 2;
    %assign/vec4 v0x5f38f3635f90_0, 0;
T_17.2 ;
    %load/vec4 v0x5f38f3635ad0_0;
    %load/vec4 v0x5f38f36357d0_0;
    %nor/r;
    %and;
    %flag_set/vec4 8;
    %jmp/0xz  T_17.4, 8;
    %load/vec4 v0x5f38f3635b70_0;
    %addi 1, 0, 2;
    %assign/vec4 v0x5f38f3635b70_0, 0;
T_17.4 ;
    %load/vec4 v0x5f38f3635ef0_0;
    %load/vec4 v0x5f38f3635890_0;
    %nor/r;
    %and;
    %load/vec4 v0x5f38f3635ad0_0;
    %load/vec4 v0x5f38f36357d0_0;
    %nor/r;
    %and;
    %concat/vec4; draw_concat_vec4
    %dup/vec4;
    %pushi/vec4 2, 0, 2;
    %cmp/u;
    %jmp/1 T_17.6, 6;
    %dup/vec4;
    %pushi/vec4 1, 0, 2;
    %cmp/u;
    %jmp/1 T_17.7, 6;
    %load/vec4 v0x5f38f36356f0_0;
    %assign/vec4 v0x5f38f36356f0_0, 0;
    %jmp T_17.9;
T_17.6 ;
    %load/vec4 v0x5f38f36356f0_0;
    %addi 1, 0, 3;
    %assign/vec4 v0x5f38f36356f0_0, 0;
    %jmp T_17.9;
T_17.7 ;
    %load/vec4 v0x5f38f36356f0_0;
    %subi 1, 0, 3;
    %assign/vec4 v0x5f38f36356f0_0, 0;
    %jmp T_17.9;
T_17.9 ;
    %pop/vec4 1;
T_17.1 ;
    %jmp T_17;
    .thread T_17;
    .scope S_0x5f38f3631820;
T_18 ;
    %wait E_0x5f38f35f4170;
    %load/vec4 v0x5f38f3632af0_0;
    %nor/r;
    %flag_set/vec4 8;
    %jmp/0xz  T_18.0, 8;
    %pushi/vec4 0, 0, 2;
    %assign/vec4 v0x5f38f3632ca0_0, 0;
    %jmp T_18.1;
T_18.0 ;
    %load/vec4 v0x5f38f3632a10_0;
    %assign/vec4 v0x5f38f3632ca0_0, 0;
T_18.1 ;
    %jmp T_18;
    .thread T_18;
    .scope S_0x5f38f3631820;
T_19 ;
Ewait_7 .event/or E_0x5f38f3631d70, E_0x0;
    %wait Ewait_7;
    %load/vec4 v0x5f38f3632ca0_0;
    %store/vec4 v0x5f38f3632a10_0, 0, 2;
    %load/vec4 v0x5f38f3632ca0_0;
    %dup/vec4;
    %pushi/vec4 0, 0, 2;
    %cmp/u;
    %jmp/1 T_19.0, 6;
    %dup/vec4;
    %pushi/vec4 1, 0, 2;
    %cmp/u;
    %jmp/1 T_19.1, 6;
    %dup/vec4;
    %pushi/vec4 2, 0, 2;
    %cmp/u;
    %jmp/1 T_19.2, 6;
    %dup/vec4;
    %pushi/vec4 3, 0, 2;
    %cmp/u;
    %jmp/1 T_19.3, 6;
    %pushi/vec4 0, 0, 2;
    %store/vec4 v0x5f38f3632a10_0, 0, 2;
    %jmp T_19.5;
T_19.0 ;
    %load/vec4 v0x5f38f3633180_0;
    %flag_set/vec4 8;
    %jmp/0xz  T_19.6, 8;
    %pushi/vec4 1, 0, 2;
    %store/vec4 v0x5f38f3632a10_0, 0, 2;
T_19.6 ;
    %jmp T_19.5;
T_19.1 ;
    %load/vec4 v0x5f38f3632100_0;
    %flag_set/vec4 8;
    %jmp/0xz  T_19.8, 8;
    %pushi/vec4 2, 0, 2;
    %store/vec4 v0x5f38f3632a10_0, 0, 2;
T_19.8 ;
    %jmp T_19.5;
T_19.2 ;
    %load/vec4 v0x5f38f3633000_0;
    %load/vec4 v0x5f38f36327b0_0;
    %and;
    %flag_set/vec4 8;
    %jmp/0xz  T_19.10, 8;
    %pushi/vec4 3, 0, 2;
    %store/vec4 v0x5f38f3632a10_0, 0, 2;
T_19.10 ;
    %jmp T_19.5;
T_19.3 ;
    %load/vec4 v0x5f38f3632550_0;
    %flag_set/vec4 8;
    %jmp/0xz  T_19.12, 8;
    %pushi/vec4 0, 0, 2;
    %store/vec4 v0x5f38f3632a10_0, 0, 2;
T_19.12 ;
    %jmp T_19.5;
T_19.5 ;
    %pop/vec4 1;
    %jmp T_19;
    .thread T_19, $push;
    .scope S_0x5f38f3631820;
T_20 ;
Ewait_8 .event/or E_0x5f38f3631d00, E_0x0;
    %wait Ewait_8;
    %load/vec4 v0x5f38f3632d80_0;
    %store/vec4 v0x5f38f3631e80_0, 0, 32;
    %pushi/vec4 0, 0, 8;
    %store/vec4 v0x5f38f3632020_0, 0, 8;
    %pushi/vec4 2, 0, 3;
    %store/vec4 v0x5f38f3632210_0, 0, 3;
    %pushi/vec4 1, 0, 2;
    %store/vec4 v0x5f38f3631f60_0, 0, 2;
    %pushi/vec4 0, 0, 1;
    %store/vec4 v0x5f38f36322f0_0, 0, 1;
    %load/vec4 v0x5f38f3632e60_0;
    %store/vec4 v0x5f38f3632610_0, 0, 32;
    %pushi/vec4 15, 0, 4;
    %store/vec4 v0x5f38f3632870_0, 0, 4;
    %pushi/vec4 1, 0, 1;
    %store/vec4 v0x5f38f36326f0_0, 0, 1;
    %pushi/vec4 0, 0, 1;
    %store/vec4 v0x5f38f3632950_0, 0, 1;
    %pushi/vec4 0, 0, 1;
    %store/vec4 v0x5f38f36323b0_0, 0, 1;
    %pushi/vec4 0, 0, 1;
    %store/vec4 v0x5f38f3632f40_0, 0, 1;
    %load/vec4 v0x5f38f3632ca0_0;
    %dup/vec4;
    %pushi/vec4 1, 0, 2;
    %cmp/u;
    %jmp/1 T_20.0, 6;
    %dup/vec4;
    %pushi/vec4 2, 0, 2;
    %cmp/u;
    %jmp/1 T_20.1, 6;
    %dup/vec4;
    %pushi/vec4 3, 0, 2;
    %cmp/u;
    %jmp/1 T_20.2, 6;
    %jmp T_20.4;
T_20.0 ;
    %pushi/vec4 1, 0, 1;
    %store/vec4 v0x5f38f36322f0_0, 0, 1;
    %jmp T_20.4;
T_20.1 ;
    %load/vec4 v0x5f38f3633000_0;
    %store/vec4 v0x5f38f3632950_0, 0, 1;
    %load/vec4 v0x5f38f3633000_0;
    %load/vec4 v0x5f38f36327b0_0;
    %and;
    %flag_set/vec4 8;
    %jmp/0xz  T_20.5, 8;
    %pushi/vec4 1, 0, 1;
    %store/vec4 v0x5f38f3632f40_0, 0, 1;
T_20.5 ;
    %jmp T_20.4;
T_20.2 ;
    %pushi/vec4 1, 0, 1;
    %store/vec4 v0x5f38f36323b0_0, 0, 1;
    %jmp T_20.4;
T_20.4 ;
    %pop/vec4 1;
    %jmp T_20;
    .thread T_20, $push;
    .scope S_0x5f38f3631820;
T_21 ;
    %wait E_0x5f38f35f4170;
    %load/vec4 v0x5f38f3632af0_0;
    %nor/r;
    %flag_set/vec4 8;
    %jmp/0xz  T_21.0, 8;
    %pushi/vec4 0, 0, 1;
    %assign/vec4 v0x5f38f36330c0_0, 0;
    %jmp T_21.1;
T_21.0 ;
    %pushi/vec4 0, 0, 1;
    %assign/vec4 v0x5f38f36330c0_0, 0;
    %load/vec4 v0x5f38f3632550_0;
    %load/vec4 v0x5f38f36323b0_0;
    %and;
    %flag_set/vec4 8;
    %jmp/0xz  T_21.2, 8;
    %pushi/vec4 1, 0, 1;
    %assign/vec4 v0x5f38f36330c0_0, 0;
T_21.2 ;
T_21.1 ;
    %jmp T_21;
    .thread T_21;
    .scope S_0x5f38f363b460;
T_22 ;
    %wait E_0x5f38f35f4170;
    %load/vec4 v0x5f38f363c460_0;
    %nor/r;
    %flag_set/vec4 8;
    %jmp/0xz  T_22.0, 8;
    %pushi/vec4 0, 0, 32;
    %assign/vec4 v0x5f38f363c380_0, 0;
    %pushi/vec4 0, 0, 1;
    %assign/vec4 v0x5f38f363c2c0_0, 0;
    %pushi/vec4 0, 0, 32;
    %assign/vec4 v0x5f38f363d4f0_0, 0;
    %pushi/vec4 0, 0, 2;
    %assign/vec4 v0x5f38f363d7e0_0, 0;
    %pushi/vec4 0, 0, 1;
    %assign/vec4 v0x5f38f363d600_0, 0;
    %pushi/vec4 0, 0, 1;
    %assign/vec4 v0x5f38f363d8f0_0, 0;
    %jmp T_22.1;
T_22.0 ;
    %load/vec4 v0x5f38f363c9e0_0;
    %load/vec4 v0x5f38f363c7e0_0;
    %and;
    %flag_set/vec4 8;
    %jmp/0xz  T_22.2, 8;
    %load/vec4 v0x5f38f363c500_0;
    %assign/vec4 v0x5f38f363c380_0, 0;
    %pushi/vec4 1, 0, 1;
    %assign/vec4 v0x5f38f363c2c0_0, 0;
T_22.2 ;
    %load/vec4 v0x5f38f363c2c0_0;
    %load/vec4 v0x5f38f363d8f0_0;
    %nor/r;
    %and;
    %flag_set/vec4 8;
    %jmp/0xz  T_22.4, 8;
    %load/vec4 v0x5f38f363c380_0;
    %ix/load 5, 2, 0;
    %flag_set/imm 4, 0;
    %shiftr 5;
    %ix/vec4 4;
    %load/vec4a v0x5f38f363c200, 4;
    %assign/vec4 v0x5f38f363d4f0_0, 0;
    %pushi/vec4 0, 0, 2;
    %assign/vec4 v0x5f38f363d7e0_0, 0;
    %pushi/vec4 1, 0, 1;
    %assign/vec4 v0x5f38f363d600_0, 0;
    %pushi/vec4 1, 0, 1;
    %assign/vec4 v0x5f38f363d8f0_0, 0;
T_22.4 ;
    %load/vec4 v0x5f38f363d8f0_0;
    %load/vec4 v0x5f38f363d6f0_0;
    %and;
    %flag_set/vec4 8;
    %jmp/0xz  T_22.6, 8;
    %pushi/vec4 0, 0, 1;
    %assign/vec4 v0x5f38f363d8f0_0, 0;
    %pushi/vec4 0, 0, 1;
    %assign/vec4 v0x5f38f363d600_0, 0;
    %pushi/vec4 0, 0, 1;
    %assign/vec4 v0x5f38f363c2c0_0, 0;
T_22.6 ;
T_22.1 ;
    %jmp T_22;
    .thread T_22;
    .scope S_0x5f38f363b460;
T_23 ;
    %wait E_0x5f38f35f4170;
    %load/vec4 v0x5f38f363c460_0;
    %nor/r;
    %flag_set/vec4 8;
    %jmp/0xz  T_23.0, 8;
    %pushi/vec4 0, 0, 32;
    %assign/vec4 v0x5f38f363df90_0, 0;
    %pushi/vec4 0, 0, 1;
    %assign/vec4 v0x5f38f363ded0_0, 0;
    %jmp T_23.1;
T_23.0 ;
    %load/vec4 v0x5f38f363d110_0;
    %load/vec4 v0x5f38f363cf10_0;
    %and;
    %flag_set/vec4 8;
    %jmp/0xz  T_23.2, 8;
    %load/vec4 v0x5f38f363cad0_0;
    %assign/vec4 v0x5f38f363df90_0, 0;
    %pushi/vec4 1, 0, 1;
    %assign/vec4 v0x5f38f363ded0_0, 0;
T_23.2 ;
    %load/vec4 v0x5f38f363dde0_0;
    %load/vec4 v0x5f38f363dbe0_0;
    %and;
    %flag_set/vec4 8;
    %jmp/0xz  T_23.4, 8;
    %pushi/vec4 0, 0, 1;
    %assign/vec4 v0x5f38f363ded0_0, 0;
T_23.4 ;
T_23.1 ;
    %jmp T_23;
    .thread T_23;
    .scope S_0x5f38f363b460;
T_24 ;
    %wait E_0x5f38f35f4170;
    %load/vec4 v0x5f38f363c460_0;
    %nor/r;
    %flag_set/vec4 8;
    %jmp/0xz  T_24.0, 8;
    %pushi/vec4 0, 0, 1;
    %assign/vec4 v0x5f38f363d400_0, 0;
    %pushi/vec4 0, 0, 2;
    %assign/vec4 v0x5f38f363d2f0_0, 0;
    %jmp T_24.1;
T_24.0 ;
    %load/vec4 v0x5f38f363dde0_0;
    %load/vec4 v0x5f38f363dbe0_0;
    %and;
    %flag_set/vec4 8;
    %jmp/0xz  T_24.2, 8;
    %fork t_1, S_0x5f38f363ba40;
    %jmp t_0;
    .scope S_0x5f38f363ba40;
t_1 ;
    %pushi/vec4 0, 0, 32;
    %store/vec4 v0x5f38f363bc20_0, 0, 32;
T_24.4 ;
    %load/vec4 v0x5f38f363bc20_0;
    %cmpi/s 4, 0, 32;
    %jmp/0xz T_24.5, 5;
    %load/vec4 v0x5f38f363dcd0_0;
    %load/vec4 v0x5f38f363bc20_0;
    %part/s 1;
    %flag_set/vec4 8;
    %jmp/0xz  T_24.6, 8;
    %load/vec4 v0x5f38f363d9e0_0;
    %load/vec4 v0x5f38f363bc20_0;
    %muli 8, 0, 32;
    %part/s 8;
    %load/vec4 v0x5f38f363df90_0;
    %ix/load 5, 2, 0;
    %flag_set/imm 4, 0;
    %shiftr 5;
    %ix/vec4 4;
    %flag_mov 8, 4;
    %load/vec4 v0x5f38f363bc20_0;
    %muli 8, 0, 32;
    %ix/vec4/s 5;
    %flag_or 8, 4;
    %ix/load 6, 0, 0; Constant delay
    %ix/mov 3, 4;
    %flag_mov 4, 8;
    %assign/vec4/a/d v0x5f38f363c200, 5, 6;
T_24.6 ;
    ; show_stmt_assign_vector: Get l-value for compressed += operand
    %load/vec4 v0x5f38f363bc20_0;
    %pushi/vec4 1, 0, 32;
    %add;
    %cast2;
    %store/vec4 v0x5f38f363bc20_0, 0, 32;
    %jmp T_24.4;
T_24.5 ;
    %end;
    .scope S_0x5f38f363b460;
t_0 %join;
    %pushi/vec4 1, 0, 1;
    %assign/vec4 v0x5f38f363d400_0, 0;
    %pushi/vec4 0, 0, 2;
    %assign/vec4 v0x5f38f363d2f0_0, 0;
T_24.2 ;
    %load/vec4 v0x5f38f363d400_0;
    %load/vec4 v0x5f38f363d200_0;
    %and;
    %flag_set/vec4 8;
    %jmp/0xz  T_24.8, 8;
    %pushi/vec4 0, 0, 1;
    %assign/vec4 v0x5f38f363d400_0, 0;
    %pushi/vec4 0, 0, 1;
    %assign/vec4 v0x5f38f363ded0_0, 0;
T_24.8 ;
T_24.1 ;
    %jmp T_24;
    .thread T_24;
    .scope S_0x5f38f36128e0;
T_25 ;
    %pushi/vec4 0, 0, 1;
    %store/vec4 v0x5f38f363e3d0_0, 0, 1;
T_25.0 ;
    %delay 5000, 0;
    %load/vec4 v0x5f38f363e3d0_0;
    %inv;
    %store/vec4 v0x5f38f363e3d0_0, 0, 1;
    %vpi_func 3 21 "$time" 64 {0 0 0};
    %cmpi/u 330, 0, 64;
    %flag_inv 5; GE is !LT
    %jmp/0xz  T_25.1, 5;
    %vpi_call/w 3 22 "$display", "### CLOCK EDGE TIME=%0t CLK=%b ###", $time, v0x5f38f363e3d0_0 {0 0 0};
T_25.1 ;
    %jmp T_25.0;
    %end;
    .thread T_25;
    .scope S_0x5f38f36128e0;
T_26 ;
    %pushi/vec4 0, 0, 1;
    %store/vec4 v0x5f38f363f710_0, 0, 1;
    %delay 50000, 0;
    %pushi/vec4 1, 0, 1;
    %store/vec4 v0x5f38f363f710_0, 0, 1;
    %end;
    .thread T_26;
    .scope S_0x5f38f36128e0;
T_27 ;
    %pushi/vec4 0, 0, 32;
    %store/vec4 v0x5f38f363fb60_0, 0, 32;
    %pushi/vec4 0, 0, 1;
    %store/vec4 v0x5f38f363fd60_0, 0, 1;
    %pushi/vec4 0, 0, 32;
    %store/vec4 v0x5f38f3640750_0, 0, 32;
    %pushi/vec4 0, 0, 4;
    %store/vec4 v0x5f38f3640950_0, 0, 4;
    %pushi/vec4 0, 0, 1;
    %store/vec4 v0x5f38f3640a60_0, 0, 1;
    %pushi/vec4 0, 0, 1;
    %store/vec4 v0x5f38f3640060_0, 0, 1;
    %pushi/vec4 0, 0, 32;
    %store/vec4 v0x5f38f363f8c0_0, 0, 32;
    %pushi/vec4 0, 0, 1;
    %store/vec4 v0x5f38f363fa70_0, 0, 1;
    %pushi/vec4 0, 0, 1;
    %store/vec4 v0x5f38f3640460_0, 0, 1;
    %wait E_0x5f38f35ef1e0;
    %pushi/vec4 5, 0, 32;
T_27.0 %dup/vec4;
    %pushi/vec4 0, 0, 32;
    %cmp/s;
    %jmp/1xz T_27.1, 5;
    %jmp/1 T_27.1, 4;
    %pushi/vec4 1, 0, 32;
    %sub;
    %wait E_0x5f38f35efcc0;
    %jmp T_27.0;
T_27.1 ;
    %pop/vec4 1;
    %vpi_call/w 3 366 "$display", "\000" {0 0 0};
    %vpi_call/w 3 367 "$display", "========================================" {0 0 0};
    %vpi_call/w 3 368 "$display", "        AXI4 DMA TEST START" {0 0 0};
    %vpi_call/w 3 369 "$display", "========================================" {0 0 0};
    %vpi_call/w 3 375 "$display", "\000" {0 0 0};
    %vpi_call/w 3 376 "$display", "Initializing source memory..." {0 0 0};
    %pushi/vec4 286331153, 0, 32;
    %ix/load 4, 1024, 0;
    %flag_set/imm 4, 0;
    %store/vec4a v0x5f38f363c200, 4, 0;
    %pushi/vec4 572662306, 0, 32;
    %ix/load 4, 1025, 0;
    %flag_set/imm 4, 0;
    %store/vec4a v0x5f38f363c200, 4, 0;
    %pushi/vec4 858993459, 0, 32;
    %ix/load 4, 1026, 0;
    %flag_set/imm 4, 0;
    %store/vec4a v0x5f38f363c200, 4, 0;
    %pushi/vec4 1145324612, 0, 32;
    %ix/load 4, 1027, 0;
    %flag_set/imm 4, 0;
    %store/vec4a v0x5f38f363c200, 4, 0;
    %pushi/vec4 0, 0, 32;
    %ix/load 4, 2048, 0;
    %flag_set/imm 4, 0;
    %store/vec4a v0x5f38f363c200, 4, 0;
    %pushi/vec4 0, 0, 32;
    %ix/load 4, 2049, 0;
    %flag_set/imm 4, 0;
    %store/vec4a v0x5f38f363c200, 4, 0;
    %pushi/vec4 0, 0, 32;
    %ix/load 4, 2050, 0;
    %flag_set/imm 4, 0;
    %store/vec4a v0x5f38f363c200, 4, 0;
    %pushi/vec4 0, 0, 32;
    %ix/load 4, 2051, 0;
    %flag_set/imm 4, 0;
    %store/vec4a v0x5f38f363c200, 4, 0;
    %vpi_call/w 3 392 "$display", "Source memory initialized." {0 0 0};
    %vpi_call/w 3 393 "$display", "Destination memory cleared." {0 0 0};
    %vpi_call/w 3 399 "$display", "\000" {0 0 0};
    %vpi_call/w 3 400 "$display", "========================================" {0 0 0};
    %vpi_call/w 3 401 "$display", "        DMA CONFIGURATION" {0 0 0};
    %vpi_call/w 3 402 "$display", "========================================" {0 0 0};
    %pushi/vec4 8, 0, 32;
    %store/vec4 v0x5f38f35d5660_0, 0, 32;
    %pushi/vec4 4096, 0, 32;
    %store/vec4 v0x5f38f35d6060_0, 0, 32;
    %fork TD_axi4_dma_tb.axi_write, S_0x5f38f35fe860;
    %join;
    %pushi/vec4 12, 0, 32;
    %store/vec4 v0x5f38f35d5660_0, 0, 32;
    %pushi/vec4 8192, 0, 32;
    %store/vec4 v0x5f38f35d6060_0, 0, 32;
    %fork TD_axi4_dma_tb.axi_write, S_0x5f38f35fe860;
    %join;
    %pushi/vec4 16, 0, 32;
    %store/vec4 v0x5f38f35d5660_0, 0, 32;
    %pushi/vec4 16, 0, 32;
    %store/vec4 v0x5f38f35d6060_0, 0, 32;
    %fork TD_axi4_dma_tb.axi_write, S_0x5f38f35fe860;
    %join;
    %vpi_call/w 3 426 "$display", "\000" {0 0 0};
    %vpi_call/w 3 427 "$display", "========================================" {0 0 0};
    %vpi_call/w 3 428 "$display", "            STARTING DMA" {0 0 0};
    %vpi_call/w 3 429 "$display", "========================================" {0 0 0};
    %pushi/vec4 0, 0, 32;
    %store/vec4 v0x5f38f35d5660_0, 0, 32;
    %pushi/vec4 1, 0, 32;
    %store/vec4 v0x5f38f35d6060_0, 0, 32;
    %fork TD_axi4_dma_tb.axi_write, S_0x5f38f35fe860;
    %join;
    %vpi_call/w 3 436 "$display", "\000" {0 0 0};
    %vpi_call/w 3 437 "$display", "START WRITE COMPLETED" {0 0 0};
    %vpi_call/w 3 438 "$display", "DMA transfer is now running..." {0 0 0};
    %pushi/vec4 100, 0, 32;
T_27.2 %dup/vec4;
    %pushi/vec4 0, 0, 32;
    %cmp/s;
    %jmp/1xz T_27.3, 5;
    %jmp/1 T_27.3, 4;
    %pushi/vec4 1, 0, 32;
    %sub;
    %wait E_0x5f38f35efcc0;
    %jmp T_27.2;
T_27.3 ;
    %pop/vec4 1;
    %vpi_call/w 3 450 "$display", "\000" {0 0 0};
    %vpi_call/w 3 451 "$display", "========================================" {0 0 0};
    %vpi_call/w 3 452 "$display", "       DESTINATION MEMORY" {0 0 0};
    %vpi_call/w 3 453 "$display", "========================================" {0 0 0};
    %vpi_call/w 3 455 "$display", "0x2000 = %h", &A<v0x5f38f363c200, 2048> {0 0 0};
    %vpi_call/w 3 460 "$display", "0x2004 = %h", &A<v0x5f38f363c200, 2049> {0 0 0};
    %vpi_call/w 3 465 "$display", "0x2008 = %h", &A<v0x5f38f363c200, 2050> {0 0 0};
    %vpi_call/w 3 470 "$display", "0x200C = %h", &A<v0x5f38f363c200, 2051> {0 0 0};
    %ix/load 4, 2048, 0;
    %flag_set/imm 4, 0;
    %load/vec4a v0x5f38f363c200, 4;
    %pushi/vec4 286331153, 0, 32;
    %cmp/e;
    %flag_get/vec4 4;
    %ix/load 4, 2049, 0;
    %flag_set/imm 4, 0;
    %load/vec4a v0x5f38f363c200, 4;
    %pushi/vec4 572662306, 0, 32;
    %cmp/e;
    %flag_get/vec4 4;
    %and;
    %ix/load 4, 2050, 0;
    %flag_set/imm 4, 0;
    %load/vec4a v0x5f38f363c200, 4;
    %pushi/vec4 858993459, 0, 32;
    %cmp/e;
    %flag_get/vec4 4;
    %and;
    %ix/load 4, 2051, 0;
    %flag_set/imm 4, 0;
    %load/vec4a v0x5f38f363c200, 4;
    %pushi/vec4 1145324612, 0, 32;
    %cmp/e;
    %flag_get/vec4 4;
    %and;
    %flag_set/vec4 8;
    %jmp/0xz  T_27.4, 8;
    %vpi_call/w 3 486 "$display", "\000" {0 0 0};
    %vpi_call/w 3 487 "$display", "========================================" {0 0 0};
    %vpi_call/w 3 488 "$display", "          *** DMA TEST PASS ***" {0 0 0};
    %vpi_call/w 3 489 "$display", "========================================" {0 0 0};
    %vpi_call/w 3 490 "$display", "\000" {0 0 0};
    %jmp T_27.5;
T_27.4 ;
    %vpi_call/w 3 495 "$display", "\000" {0 0 0};
    %vpi_call/w 3 496 "$display", "========================================" {0 0 0};
    %vpi_call/w 3 497 "$display", "          *** DMA TEST FAIL ***" {0 0 0};
    %vpi_call/w 3 498 "$display", "========================================" {0 0 0};
    %vpi_call/w 3 499 "$display", "\000" {0 0 0};
T_27.5 ;
    %vpi_call/w 3 503 "$finish" {0 0 0};
    %end;
    .thread T_27;
    .scope S_0x5f38f36128e0;
T_28 ;
    %wait E_0x5f38f35efcc0;
    %load/vec4 v0x5f38f363f710_0;
    %flag_set/vec4 8;
    %jmp/0xz  T_28.0, 8;
    %vpi_call/w 3 512 "$display", "TIME=%0t | DMA_STATE=%0d | START=%b | READ_REQ=%b | READ_DONE=%b | WRITE_REQ=%b | WRITE_DONE=%b | FIFO_EMPTY=%b | FIFO_FULL=%b | FIFO_COUNT=%0d | AWVALID=%b | AWREADY=%b | WVALID=%b | WREADY=%b | BVALID=%b | BREADY=%b", $time, v0x5f38f3634480_0, v0x5f38f3633e70_0, v0x5f38f36340b0_0, v0x5f38f3634010_0, v0x5f38f3634820_0, v0x5f38f3634750_0, v0x5f38f36357d0_0, v0x5f38f3635890_0, v0x5f38f36356f0_0, v0x5f38f363eca0_0, v0x5f38f363eb40_0, v0x5f38f363f670_0, v0x5f38f363f510_0, v0x5f38f363eea0_0, v0x5f38f363ed40_0 {0 0 0};
T_28.0 ;
    %jmp T_28;
    .thread T_28;
    .scope S_0x5f38f36128e0;
T_29 ;
    %wait E_0x5f38f35efcc0;
    %pushi/vec4 335, 0, 64;
    %vpi_func 3 535 "$time" 64 {0 0 0};
    %cmp/u;
    %flag_get/vec4 4;
    %flag_get/vec4 5;
    %or;
    %vpi_func 3 535 "$time" 64 {0 0 0};
    %cmpi/u 500, 0, 64;
    %flag_get/vec4 4;
    %flag_get/vec4 5;
    %or;
    %and;
    %flag_set/vec4 8;
    %jmp/0xz  T_29.0, 8;
    %vpi_call/w 3 536 "$display", "### CLOCK STILL RUNNING: %0t ###", $time {0 0 0};
T_29.0 ;
    %jmp T_29;
    .thread T_29;
    .scope S_0x5f38f36128e0;
T_30 ;
    %wait E_0x5f38f3521dc0;
    %vpi_call/w 3 541 "$display", "STATE CHANGE: TIME=%0t STATE=%0d READ_REQ=%b READ_DONE=%b WRITE_REQ=%b WRITE_DONE=%b FIFO_EMPTY=%b FIFO_COUNT=%0d", $time, v0x5f38f3634480_0, v0x5f38f36340b0_0, v0x5f38f3634010_0, v0x5f38f3634820_0, v0x5f38f3634750_0, v0x5f38f36357d0_0, v0x5f38f36356f0_0 {0 0 0};
    %jmp T_30;
    .thread T_30, $push;
    .scope S_0x5f38f36128e0;
T_31 ;
    %wait E_0x5f38f3617400;
    %vpi_call/w 3 554 "$display", "WRITE MASTER STATE: TIME=%0t STATE=%0d WRITE_REQ=%b AWVALID=%b AWREADY=%b WVALID=%b WREADY=%b BVALID=%b BREADY=%b", $time, v0x5f38f3632ca0_0, v0x5f38f3633180_0, v0x5f38f36322f0_0, v0x5f38f3632100_0, v0x5f38f3632950_0, v0x5f38f36327b0_0, v0x5f38f3632550_0, v0x5f38f36323b0_0 {0 0 0};
    %jmp T_31;
    .thread T_31, $push;
    .scope S_0x5f38f36128e0;
T_32 ;
    %wait E_0x5f38f3614c60;
    %vpi_call/w 3 569 "$display", "WRITE_REQ CHANGE: TIME=%0t VALUE=%b", $time, v0x5f38f3633180_0 {0 0 0};
    %jmp T_32;
    .thread T_32, $push;
    .scope S_0x5f38f36128e0;
T_33 ;
    %wait E_0x5f38f3617400;
    %vpi_call/w 3 577 "$display", "WRITE STATE CHANGE: TIME=%0t STATE=%0d", $time, v0x5f38f3632ca0_0 {0 0 0};
    %jmp T_33;
    .thread T_33, $push;
    .scope S_0x5f38f36128e0;
T_34 ;
    %wait E_0x5f38f3618fc0;
    %vpi_call/w 3 585 "$display", "WRITE NEXT_STATE CHANGE: TIME=%0t NEXT_STATE=%0d", $time, v0x5f38f3632a10_0 {0 0 0};
    %jmp T_34;
    .thread T_34, $push;
    .scope S_0x5f38f36128e0;
T_35 ;
    %wait E_0x5f38f3614d20;
    %vpi_call/w 3 593 "$display", "AWVALID CHANGE: TIME=%0t VALUE=%b", $time, v0x5f38f363eca0_0 {0 0 0};
    %jmp T_35;
    .thread T_35, $push;
    .scope S_0x5f38f36128e0;
T_36 ;
    %wait E_0x5f38f3614670;
    %vpi_call/w 3 601 "$display", "WVALID CHANGE: TIME=%0t VALUE=%b", $time, v0x5f38f363f670_0 {0 0 0};
    %jmp T_36;
    .thread T_36, $push;
    .scope S_0x5f38f36128e0;
T_37 ;
    %wait E_0x5f38f36186d0;
    %vpi_call/w 3 609 "$display", "FIFO_RD_EN CHANGE: TIME=%0t VALUE=%b", $time, v0x5f38f3637f80_0 {0 0 0};
    %jmp T_37;
    .thread T_37, $push;
# The file index is used to find the file name in the following table.
:file_names 12;
    "N/A";
    "<interactive>";
    "-";
    "tb/axi4_dma_tb.sv";
    "rtl/top/axi4_dma_top.sv";
    "rtl/axi/axi4_lite_slave.sv";
    "rtl/axi/axi4_read_master.sv";
    "rtl/axi/axi4_write_master.sv";
    "rtl/dma/dma_controller.sv";
    "rtl/dma/dma_fifo.sv";
    "rtl/dma/dma_registers.sv";
    "tb/axi_memory_model.sv";
